# Hz S MA R 50
! Planar, Obzor-304, 08125003, 3.51/02
! Дата: 26.03.2019 11:27:57
! Данные: Формат (Калибровка)
! Частота                  S11: Mag/Ang (F2)                     S21: Mag/Ang (F2)                     S12: Mag/Ang (F2)                     S22: Mag/Ang (F2)           
1.50000000000E+08 +5.81535630592E-01 +1.40690086250E+02 +5.56285920860E-02 +7.86029055110E+01 +5.56677915563E-02 +7.89360290404E+01 +5.78886762078E-01 +1.36129325932E+02
1.50250000000E+08 +5.78219600743E-01 +1.39832129043E+02 +5.56908690843E-02 +7.67287028935E+01 +5.57695489411E-02 +7.70693486719E+01 +5.72708382890E-01 +1.35145110479E+02
1.50500000000E+08 +5.74985521227E-01 +1.38945006264E+02 +5.57467986058E-02 +7.48977006871E+01 +5.58815609898E-02 +7.52267351021E+01 +5.66370492280E-01 +1.34162477951E+02
1.50750000000E+08 +5.71771337755E-01 +1.38014258534E+02 +5.58350721372E-02 +7.30775617329E+01 +5.59648343698E-02 +7.33904995620E+01 +5.60018373971E-01 +1.33180341642E+02
1.51000000000E+08 +5.68452000553E-01 +1.37039378105E+02 +5.59588091635E-02 +7.12489266516E+01 +5.61133393503E-02 +7.15332641019E+01 +5.53684728727E-01 +1.32203936770E+02
1.51250000000E+08 +5.64994779813E-01 +1.36031943973E+02 +5.60612820878E-02 +6.93174812408E+01 +5.62432027412E-02 +6.95933929124E+01 +5.47346425449E-01 +1.31214875275E+02
1.51500000000E+08 +5.61376212251E-01 +1.34997341320E+02 +5.60843532231E-02 +6.74287716028E+01 +5.62818547814E-02 +6.76593947270E+01 +5.40955989642E-01 +1.30226465356E+02
1.51750000000E+08 +5.57486810307E-01 +1.33918305223E+02 +5.61130441436E-02 +6.55748560647E+01 +5.62988112518E-02 +6.57855261608E+01 +5.34519349955E-01 +1.29238220311E+02
1.52000000000E+08 +5.53340440650E-01 +1.32816697047E+02 +5.61817817181E-02 +6.37732033816E+01 +5.63667145955E-02 +6.39848216419E+01 +5.28205667872E-01 +1.28254433670E+02
1.52250000000E+08 +5.48845792900E-01 +1.31696381295E+02 +5.62667730354E-02 +6.19208679560E+01 +5.64454104338E-02 +6.21055518729E+01 +5.21823291729E-01 +1.27259819337E+02
1.52500000000E+08 +5.44059359579E-01 +1.30567287084E+02 +5.63619542038E-02 +6.00629387750E+01 +5.65303340481E-02 +6.02432148139E+01 +5.15567133833E-01 +1.26259646278E+02
1.52750000000E+08 +5.39059613683E-01 +1.29429703111E+02 +5.63836693511E-02 +5.81885637686E+01 +5.65346967229E-02 +5.83608327282E+01 +5.09307470491E-01 +1.25238156299E+02
1.53000000000E+08 +5.33795788946E-01 +1.28268877370E+02 +5.64331469971E-02 +5.63275784554E+01 +5.65681163842E-02 +5.64969631006E+01 +5.03002584853E-01 +1.24213907748E+02
1.53250000000E+08 +5.28204270452E-01 +1.27101991444E+02 +5.64718513789E-02 +5.44799953011E+01 +5.65718805911E-02 +5.46560958903E+01 +4.96673971529E-01 +1.23191711543E+02
1.53500000000E+08 +5.22473743003E-01 +1.25943319334E+02 +5.64649367878E-02 +5.25968107855E+01 +5.65829004226E-02 +5.28184379791E+01 +4.90338003548E-01 +1.22158992978E+02
1.53750000000E+08 +5.16521438346E-01 +1.24776421448E+02 +5.64746358825E-02 +5.07674112226E+01 +5.65672416857E-02 +5.09735029749E+01 +4.84153882096E-01 +1.21111721701E+02
1.54000000000E+08 +5.10383450545E-01 +1.23596516038E+02 +5.64661788857E-02 +4.89541247295E+01 +5.65745405963E-02 +4.91265509684E+01 +4.77831937498E-01 +1.20047868985E+02
1.54250000000E+08 +5.03955594339E-01 +1.22428385962E+02 +5.64091218380E-02 +4.70796176980E+01 +5.65180596988E-02 +4.73332684504E+01 +4.71486602782E-01 +1.18986515794E+02
1.54500000000E+08 +4.97486185749E-01 +1.21274918217E+02 +5.63425860044E-02 +4.52868415426E+01 +5.64652950577E-02 +4.55644417274E+01 +4.65180371654E-01 +1.17931421184E+02
1.54750000000E+08 +4.90978330338E-01 +1.20117950285E+02 +5.63340761342E-02 +4.35861453537E+01 +5.64536347360E-02 +4.38588542284E+01 +4.58966945002E-01 +1.16849629573E+02
1.55000000000E+08 +4.84246519024E-01 +1.18968169445E+02 +5.64000346602E-02 +4.17706180066E+01 +5.65485353846E-02 +4.20609382300E+01 +4.52637499128E-01 +1.15747250812E+02
1.55250000000E+08 +4.77494165244E-01 +1.17831276260E+02 +5.63521380758E-02 +3.99138580356E+01 +5.65321954195E-02 +4.02328838910E+01 +4.46232385960E-01 +1.14652160052E+02
1.55500000000E+08 +4.70756189089E-01 +1.16716060868E+02 +5.62871965830E-02 +3.81651345766E+01 +5.64874142804E-02 +3.84618818382E+01 +4.39729825889E-01 +1.13556303721E+02
1.55750000000E+08 +4.64066576207E-01 +1.15586928176E+02 +5.62761334340E-02 +3.63823280799E+01 +5.65134296932E-02 +3.67020465855E+01 +4.33248864860E-01 +1.12462024147E+02
1.56000000000E+08 +4.57392860351E-01 +1.14462315867E+02 +5.62457880158E-02 +3.45902714341E+01 +5.65272447031E-02 +3.48796074128E+01 +4.26717263980E-01 +1.11370028851E+02
1.56250000000E+08 +4.50653272266E-01 +1.13342585270E+02 +5.61523826336E-02 +3.28214133009E+01 +5.64513501130E-02 +3.31131452269E+01 +4.20206807596E-01 +1.10274760730E+02
1.56500000000E+08 +4.43926632942E-01 +1.12227795378E+02 +5.61278251495E-02 +3.11068906327E+01 +5.64606083474E-02 +3.13660218387E+01 +4.13747689540E-01 +1.09168121465E+02
1.56750000000E+08 +4.37105183403E-01 +1.11111776794E+02 +5.60984626882E-02 +2.93222732876E+01 +5.64472503441E-02 +2.95868108373E+01 +4.07134461396E-01 +1.08048891307E+02
1.57000000000E+08 +4.30272689057E-01 +1.10008850484E+02 +5.60852962750E-02 +2.75109316063E+01 +5.64348002496E-02 +2.77473925329E+01 +4.00453817763E-01 +1.06951197741E+02
1.57250000000E+08 +4.23538393312E-01 +1.08919948907E+02 +5.59850583051E-02 +2.57223303613E+01 +5.63611807961E-02 +2.59208000930E+01 +3.93968877973E-01 +1.05857076401E+02
1.57500000000E+08 +4.16888893805E-01 +1.07823899047E+02 +5.58453785769E-02 +2.39919280280E+01 +5.62306225164E-02 +2.41607982740E+01 +3.87423925683E-01 +1.04739263479E+02
1.57750000000E+08 +4.10206701924E-01 +1.06711532324E+02 +5.58311556960E-02 +2.22564055576E+01 +5.62260810646E-02 +2.24230238948E+01 +3.80816706413E-01 +1.03631737125E+02
1.58000000000E+08 +4.03368768964E-01 +1.05615410484E+02 +5.57707596527E-02 +2.04551960040E+01 +5.61589799430E-02 +2.05983175455E+01 +3.74282993833E-01 +1.02512254768E+02
1.58250000000E+08 +3.96605470204E-01 +1.04534175403E+02 +5.56041288467E-02 +1.86955435832E+01 +5.59831896455E-02 +1.87978894761E+01 +3.67837684550E-01 +1.01389882390E+02
1.58500000000E+08 +3.90026711901E-01 +1.03454209120E+02 +5.55208198431E-02 +1.70394115632E+01 +5.59186463307E-02 +1.71303727935E+01 +3.61467042653E-01 +1.00259404325E+02
1.58750000000E+08 +3.83414546978E-01 +1.02358607238E+02 +5.54678520381E-02 +1.53220854114E+01 +5.58620333919E-02 +1.54074061890E+01 +3.55061236196E-01 +9.91028930739E+01
1.59000000000E+08 +3.76739509655E-01 +1.01276137538E+02 +5.53985799300E-02 +1.35491162652E+01 +5.58015709740E-02 +1.36044962180E+01 +3.48582006545E-01 +9.79472546857E+01
1.59250000000E+08 +3.70230780634E-01 +1.00183135765E+02 +5.53225945402E-02 +1.17649607853E+01 +5.56990196838E-02 +1.18073756186E+01 +3.42227969927E-01 +9.67824727582E+01
1.59500000000E+08 +3.63816690062E-01 +9.90877203893E+01 +5.51987369961E-02 +9.99187808775E+00 +5.55662457037E-02 +1.00211466971E+01 +3.35837081977E-01 +9.56139365146E+01
1.59750000000E+08 +3.57320504518E-01 +9.79797757816E+01 +5.50603872252E-02 +8.18209189299E+00 +5.54377632412E-02 +8.19719030844E+00 +3.29510884735E-01 +9.44309689600E+01
1.60000000000E+08 +3.50939801323E-01 +9.68857190241E+01 +5.48368229672E-02 +6.38192376135E+00 +5.52086858128E-02 +6.36905797340E+00 +3.23213513395E-01 +9.32571837239E+01
1.60250000000E+08 +3.44695159546E-01 +9.57925864531E+01 +5.45465429797E-02 +4.72135091894E+00 +5.49171172483E-02 +4.67914216034E+00 +3.16965712424E-01 +9.20712206678E+01
1.60500000000E+08 +3.38609250691E-01 +9.46670420087E+01 +5.43911505149E-02 +3.10176345611E+00 +5.47358588504E-02 +3.06170843059E+00 +3.10725377938E-01 +9.08834850073E+01
1.60750000000E+08 +3.32484846146E-01 +9.35267285219E+01 +5.42594945629E-02 +1.43899187435E+00 +5.46073284839E-02 +1.39118307380E+00 +3.04682192281E-01 +8.97024833248E+01
1.61000000000E+08 +3.26459113446E-01 +9.23602724983E+01 +5.41405925969E-02 -2.71481187803E-01 +5.44582762658E-02 -3.10324478342E-01 +2.98652762840E-01 +8.84883092694E+01
1.61250000000E+08 +3.20320652537E-01 +9.11881247181E+01 +5.39746615457E-02 -2.02131777052E+00 +5.42953751606E-02 -2.08689876400E+00 +2.92592705322E-01 +8.72642774949E+01
1.61500000000E+08 +3.14212065953E-01 +9.00248191858E+01 +5.37936765091E-02 -3.75816438928E+00 +5.41083993256E-02 -3.84298774861E+00 +2.86547343016E-01 +8.60496581043E+01
1.61750000000E+08 +3.08173228379E-01 +8.88639083848E+01 +5.35176201001E-02 -5.59077899324E+00 +5.38404696967E-02 -5.70025677313E+00 +2.80568882461E-01 +8.48340659047E+01
1.62000000000E+08 +3.02266418010E-01 +8.77346284421E+01 +5.30895181114E-02 -7.26024628419E+00 +5.33837062812E-02 -7.38320315806E+00 +2.74824417519E-01 +8.36188788857E+01
1.62250000000E+08 +2.96568360977E-01 +8.65649687551E+01 +5.27617588569E-02 -8.76129420536E+00 +5.30392462778E-02 -8.90015631025E+00 +2.69043813535E-01 +8.23403362713E+01
1.62500000000E+08 +2.90945893213E-01 +8.53689001717E+01 +5.25139915720E-02 -1.03091076409E+01 +5.27923687500E-02 -1.04474397195E+01 +2.63121188980E-01 +8.10462981681E+01
1.62750000000E+08 +2.85268177511E-01 +8.41852000350E+01 +5.22071811300E-02 -1.18510480089E+01 +5.24629970938E-02 -1.19951067115E+01 +2.57237792521E-01 +7.97698783613E+01
1.63000000000E+08 +2.79793405096E-01 +8.29842442982E+01 +5.19264245645E-02 -1.32829371081E+01 +5.21640029138E-02 -1.34672486131E+01 +2.51326856448E-01 +7.84885607905E+01
1.63250000000E+08 +2.74372969197E-01 +8.17583579870E+01 +5.17431595295E-02 -1.46485209901E+01 +5.19580599386E-02 -1.48414108932E+01 +2.45497073585E-01 +7.72125630600E+01
1.63500000000E+08 +2.68997514783E-01 +8.04948917482E+01 +5.16859838350E-02 -1.60955597416E+01 +5.18733846598E-02 -1.63155254730E+01 +2.39822591615E-01 +7.59035523541E+01
1.63750000000E+08 +2.63624670362E-01 +7.91918095297E+01 +5.16536320107E-02 -1.76996775969E+01 +5.18115821870E-02 -1.79113565500E+01 +2.34073710246E-01 +7.45889859126E+01
1.64000000000E+08 +2.58066247024E-01 +7.78789483470E+01 +5.14693451042E-02 -1.93732341768E+01 +5.15711970967E-02 -1.95509555033E+01 +2.28447888354E-01 +7.32705828821E+01
1.64250000000E+08 +2.52515808107E-01 +7.65528899506E+01 +5.12536811403E-02 -2.09681781038E+01 +5.13508654432E-02 -2.11605071851E+01 +2.22778974507E-01 +7.19319173021E+01
1.64500000000E+08 +2.46988066689E-01 +7.52020773528E+01 +5.10621533899E-02 -2.25998411263E+01 +5.11353308325E-02 -2.27806358759E+01 +2.17185428163E-01 +7.06050818756E+01
1.64750000000E+08 +2.41477744423E-01 +7.38498067902E+01 +5.07317174457E-02 -2.41974353779E+01 +5.07798405743E-02 -2.43556361254E+01 +2.11795842623E-01 +6.93091330862E+01
1.65000000000E+08 +2.35876469985E-01 +7.24611488213E+01 +5.04111552307E-02 -2.56298713003E+01 +5.04458451223E-02 -2.57915858930E+01 +2.06654349379E-01 +6.79514714615E+01
1.65250000000E+08 +2.30325254852E-01 +7.10582263390E+01 +5.01822712246E-02 -2.70051884854E+01 +5.02134364436E-02 -2.71175022794E+01 +2.01635002209E-01 +6.65514089947E+01
1.65500000000E+08 +2.24708015852E-01 +6.96239111389E+01 +5.00967216344E-02 -2.84319642261E+01 +5.00853482605E-02 -2.85458073631E+01 +1.96603681802E-01 +6.50773702820E+01
1.65750000000E+08 +2.19065829069E-01 +6.81640794048E+01 +5.00067488418E-02 -3.00223709116E+01 +4.99814358067E-02 -3.00761278712E+01 +1.91473567435E-01 +6.36193319578E+01
1.66000000000E+08 +2.13283662263E-01 +6.67156198900E+01 +4.97496973971E-02 -3.16371638916E+01 +4.97254997939E-02 -3.16988349117E+01 +1.86499564622E-01 +6.21601822889E+01
1.66250000000E+08 +2.07560999193E-01 +6.52635751281E+01 +4.93953549753E-02 -3.31636164999E+01 +4.94006498078E-02 -3.31640260230E+01 +1.81659422165E-01 +6.06810163946E+01
1.66500000000E+08 +2.01895492554E-01 +6.38098824059E+01 +4.90927303698E-02 -3.46003622100E+01 +4.91001849421E-02 -3.45726594632E+01 +1.76851738935E-01 +5.91831880235E+01
1.66750000000E+08 +1.96335069838E-01 +6.23514138223E+01 +4.87919085650E-02 -3.59400110189E+01 +4.88110145863E-02 -3.58868258382E+01 +1.72244157378E-01 +5.76751671590E+01
1.67000000000E+08 +1.90845544794E-01 +6.08545809670E+01 +4.86028656657E-02 -3.72271192806E+01 +4.86308826738E-02 -3.71640496039E+01 +1.67816895183E-01 +5.61165122636E+01
1.67250000000E+08 +1.85262655985E-01 +5.93572255808E+01 +4.84674322722E-02 -3.85395929845E+01 +4.85112707714E-02 -3.84673326349E+01 +1.63477764259E-01 +5.45104387907E+01
1.67500000000E+08 +1.79677610998E-01 +5.78586908095E+01 +4.83675243501E-02 -3.99171272014E+01 +4.84244464099E-02 -3.98407119147E+01 +1.59199636945E-01 +5.27983016715E+01
1.67750000000E+08 +1.74163642580E-01 +5.63998518859E+01 +4.82934219779E-02 -4.14182017449E+01 +4.83532505337E-02 -4.13362304652E+01 +1.54663504405E-01 +5.10246272371E+01
1.68000000000E+08 +1.68747888401E-01 +5.50160185913E+01 +4.80996247123E-02 -4.28826744932E+01 +4.81583468496E-02 -4.27909481015E+01 +1.50131133525E-01 +4.93003126984E+01
1.68250000000E+08 +1.63684909213E-01 +5.36357507776E+01 +4.79105675809E-02 -4.43267874796E+01 +4.79877229819E-02 -4.42253520702E+01 +1.45751533443E-01 +4.75968889486E+01
1.68500000000E+08 +1.58808064159E-01 +5.22084484011E+01 +4.76952547545E-02 -4.57034743837E+01 +4.77933360355E-02 -4.56007319877E+01 +1.41543694871E-01 +4.58729265888E+01
1.68750000000E+08 +1.53947519898E-01 +5.07548450424E+01 +4.75538339625E-02 -4.69772119553E+01 +4.76629583012E-02 -4.68714160009E+01 +1.37446573120E-01 +4.40816109860E+01
1.69000000000E+08 +1.49196046790E-01 +4.93324832411E+01 +4.75777227286E-02 -4.83318295549E+01 +4.76875259612E-02 -4.82420224017E+01 +1.33466423252E-01 +4.22760817334E+01
1.69250000000E+08 +1.44631166372E-01 +4.79143953310E+01 +4.75901254528E-02 -4.98593204442E+01 +4.77125877817E-02 -4.97690948853E+01 +1.29754076478E-01 +4.04266757653E+01
1.69500000000E+08 +1.40126976268E-01 +4.64827803052E+01 +4.74754562356E-02 -5.15518896376E+01 +4.76124980018E-02 -5.14521551918E+01 +1.26139408200E-01 +3.84205637805E+01
1.69750000000E+08 +1.35900472728E-01 +4.50757435330E+01 +4.72526225283E-02 -5.30972991303E+01 +4.74024974059E-02 -5.30152165483E+01 +1.22446538472E-01 +3.62962517828E+01
1.70000000000E+08 +1.31874014777E-01 +4.36226536549E+01 +4.70027141182E-02 -5.45729977102E+01 +4.71742881108E-02 -5.45206731171E+01 +1.18710342866E-01 +3.41704387651E+01
1.70250000000E+08 +1.27987974520E-01 +4.20839562921E+01 +4.68761525718E-02 -5.60016962144E+01 +4.70293771956E-02 -5.59640775396E+01 +1.15116128658E-01 +3.20758025152E+01
1.70500000000E+08 +1.24207420299E-01 +4.04718741246E+01 +4.67772100071E-02 -5.76217240775E+01 +4.69346277739E-02 -5.75737679375E+01 +1.11766311353E-01 +2.99419430688E+01
1.70750000000E+08 +1.20438459242E-01 +3.87920531885E+01 +4.64977242630E-02 -5.92867727231E+01 +4.66591520764E-02 -5.92664369231E+01 +1.08725815022E-01 +2.77122047619E+01
1.71000000000E+08 +1.16730650328E-01 +3.70345423571E+01 +4.61709163662E-02 -6.07748092961E+01 +4.63226869650E-02 -6.07384825020E+01 +1.05851509096E-01 +2.53078060662E+01
1.71250000000E+08 +1.13125404379E-01 +3.52199452101E+01 +4.59445884994E-02 -6.21822966541E+01 +4.61097437946E-02 -6.21566598090E+01 +1.02919006687E-01 +2.27226534502E+01
1.71500000000E+08 +1.09457765372E-01 +3.33576156113E+01 +4.57221141491E-02 -6.37414992902E+01 +4.58710388186E-02 -6.37276660643E+01 +9.99615820647E-02 +2.01154578840E+01
1.71750000000E+08 +1.05952245212E-01 +3.14476838724E+01 +4.54611398620E-02 -6.53580360117E+01 +4.55917237399E-02 -6.53211042716E+01 +9.71084957992E-02 +1.74633441177E+01
1.72000000000E+08 +1.02541098059E-01 +2.94647995480E+01 +4.50815130278E-02 -6.69161500105E+01 +4.52235884547E-02 -6.69026998629E+01 +9.44713916339E-02 +1.47550702360E+01
1.72250000000E+08 +9.92391813018E-02 +2.73489875481E+01 +4.46470704528E-02 -6.83986033808E+01 +4.47973125226E-02 -6.83866737862E+01 +9.18984686343E-02 +1.19168792462E+01
1.72500000000E+08 +9.59159793981E-02 +2.51928644797E+01 +4.41822578323E-02 -6.97834415907E+01 +4.43272717077E-02 -6.97548153747E+01 +8.93237526466E-02 +9.05308618889E+00
1.72750000000E+08 +9.28087241655E-02 +2.30523545937E+01 +4.38071278598E-02 -7.10480362705E+01 +4.39484448675E-02 -7.10130913424E+01 +8.69505312764E-02 +6.12996919272E+00
1.73000000000E+08 +8.98876911095E-02 +2.06821807738E+01 +4.34751250247E-02 -7.23206144733E+01 +4.36210489126E-02 -7.23204571711E+01 +8.46671577141E-02 +3.17277478810E+00
1.73250000000E+08 +8.69463546402E-02 +1.82120056315E+01 +4.30931172328E-02 -7.36814644534E+01 +4.32177287699E-02 -7.36714917944E+01 +8.24708295588E-02 +1.52797721621E-01
1.73500000000E+08 +8.40492205925E-02 +1.56606491631E+01 +4.26506990979E-02 -7.48596375382E+01 +4.27850454758E-02 -7.48437408621E+01 +8.05622449401E-02 -2.87047597066E+00
1.73750000000E+08 +8.12507965580E-02 +1.30712871592E+01 +4.22361472567E-02 -7.59843682157E+01 +4.23827293251E-02 -7.59838042261E+01 +7.88126209730E-02 -6.02155342996E+00
1.74000000000E+08 +7.86443627656E-02 +1.04804274729E+01 +4.19055196775E-02 -7.68939475424E+01 +4.20518932351E-02 -7.69066117210E+01 +7.71828230452E-02 -9.36358120332E+00
1.74250000000E+08 +7.62537737346E-02 +7.77686091753E+00 +4.17710065312E-02 -7.79232762378E+01 +4.19370250123E-02 -7.79310137153E+01 +7.54976800364E-02 -1.27473427795E+01
1.74500000000E+08 +7.40345074628E-02 +4.87436719206E+00 +4.16359046217E-02 -7.91464351427E+01 +4.17948721016E-02 -7.91599125403E+01 +7.38825349907E-02 -1.60248075910E+01
1.74750000000E+08 +7.18712305131E-02 +1.83109635760E+00 +4.14587821101E-02 -8.03715215291E+01 +4.16023017633E-02 -8.04243243349E+01 +7.25709893713E-02 -1.92874312477E+01
1.75000000000E+08 +6.96824998060E-02 -1.36546591358E+00 +4.12143625497E-02 -8.15837425423E+01 +4.13640137974E-02 -8.16696864952E+01 +7.14693823380E-02 -2.26297370667E+01
1.75250000000E+08 +6.75683850937E-02 -4.50128131344E+00 +4.09596585102E-02 -8.28099934181E+01 +4.11153348356E-02 -8.29243158210E+01 +7.04330221721E-02 -2.60538346480E+01
1.75500000000E+08 +6.55957830353E-02 -7.64359714703E+00 +4.06356492516E-02 -8.40614717100E+01 +4.07876273513E-02 -8.41805975205E+01 +6.95091806470E-02 -2.93343659037E+01
1.75750000000E+08 +6.39093804206E-02 -1.08812033954E+01 +4.02523977735E-02 -8.51209331979E+01 +4.04003890365E-02 -8.51950541320E+01 +6.89364180145E-02 -3.26258939917E+01
1.76000000000E+08 +6.23683447446E-02 -1.42267754253E+01 +3.99889338119E-02 -8.59653346059E+01 +4.01219083142E-02 -8.60935593475E+01 +6.86043965951E-02 -3.59325899054E+01
1.76250000000E+08 +6.09038777028E-02 -1.76667229820E+01 +3.98337049884E-02 -8.68483678849E+01 +3.99383863516E-02 -8.70035513268E+01 +6.83292109380E-02 -3.93105119854E+01
1.76500000000E+08 +5.96736619054E-02 -2.12071246269E+01 +3.97993912082E-02 -8.77451255605E+01 +3.98759737218E-02 -8.79126702739E+01 +6.82143728362E-02 -4.26148419016E+01
1.76750000000E+08 +5.85041315807E-02 -2.49141693605E+01 +3.97893939209E-02 -8.88426486687E+01 +3.98771013848E-02 -8.89898526190E+01 +6.82661749033E-02 -4.60244188143E+01
1.77000000000E+08 +5.74517551617E-02 -2.86700950734E+01 +3.97588089193E-02 -9.00437561022E+01 +3.98237290016E-02 -9.02042009476E+01 +6.83281334933E-02 -4.93916441331E+01
1.77250000000E+08 +5.64314952272E-02 -3.24218479749E+01 +3.96095463544E-02 -9.13439896373E+01 +3.96723829551E-02 -9.14830343385E+01 +6.82992298976E-02 -5.26798590085E+01
1.77500000000E+08 +5.56212708897E-02 -3.61487345012E+01 +3.93801440589E-02 -9.24925193323E+01 +3.94091477977E-02 -9.26624639576E+01 +6.82430310275E-02 -5.57234591413E+01
1.77750000000E+08 +5.49780588263E-02 -3.99260588175E+01 +3.92079030066E-02 -9.35243230703E+01 +3.92168587965E-02 -9.36731644333E+01 +6.84691690426E-02 -5.85553262537E+01
1.78000000000E+08 +5.45338224206E-02 -4.35620574726E+01 +3.91451586103E-02 -9.44264273666E+01 +3.91539478974E-02 -9.45385335431E+01 +6.88786382227E-02 -6.13333750973E+01
1.78250000000E+08 +5.44085997918E-02 -4.73391406180E+01 +3.91794468824E-02 -9.56395189373E+01 +3.91909354740E-02 -9.57650852935E+01 +6.92741139878E-02 -6.40764838445E+01
1.78500000000E+08 +5.43404780589E-02 -5.12614785979E+01 +3.90560641084E-02 -9.69476505654E+01 +3.90589913621E-02 -9.70979657668E+01 +6.97419666318E-02 -6.66472001148E+01
