# Hz S MA R 50
! Planar, Obzor-304, 08125003, 3.51/02
! Дата: 26.03.2019 11:25:41
! Данные: Формат (Калибровка)
! Частота                  S11: Mag/Ang (F2)                     S21: Mag/Ang (F2)                     S12: Mag/Ang (F2)                     S22: Mag/Ang (F2)           
1.50000000000E+08 +5.82261721222E-01 +1.40654730427E+02 +1.43660205112E-01 -6.28235907363E+01 +1.43869175990E-01 -6.24650250211E+01 +6.04010970793E-01 +1.37616177657E+02
1.50250000000E+08 +5.78890117465E-01 +1.39775535769E+02 +1.44116201495E-01 -6.41085225039E+01 +1.44442962505E-01 -6.37608280726E+01 +5.98533805812E-01 +1.36565307023E+02
1.50500000000E+08 +5.75624349401E-01 +1.38859448170E+02 +1.44599407600E-01 -6.53970035834E+01 +1.45029800279E-01 -6.50654917146E+01 +5.92763818145E-01 +1.35522915864E+02
1.50750000000E+08 +5.72316522566E-01 +1.37909101657E+02 +1.45075711109E-01 -6.66306125832E+01 +1.45660518000E-01 -6.63402339237E+01 +5.87090659059E-01 +1.34466513625E+02
1.51000000000E+08 +5.68806654670E-01 +1.36911279717E+02 +1.45789589538E-01 -6.78715490558E+01 +1.46354466975E-01 -6.75993848018E+01 +5.81317215071E-01 +1.33411475791E+02
1.51250000000E+08 +5.65186251952E-01 +1.35889029462E+02 +1.46608278473E-01 -6.91123603019E+01 +1.47212077885E-01 -6.88760021913E+01 +5.75495308231E-01 +1.32340401415E+02
1.51500000000E+08 +5.61388696637E-01 +1.34836743023E+02 +1.47511283237E-01 -7.04225717108E+01 +1.48147117050E-01 -7.02171540036E+01 +5.69595194473E-01 +1.31270530015E+02
1.51750000000E+08 +5.57338331852E-01 +1.33751741851E+02 +1.48380716706E-01 -7.17520084031E+01 +1.49032959946E-01 -7.15977596872E+01 +5.63674407416E-01 +1.30188213246E+02
1.52000000000E+08 +5.52971618026E-01 +1.32642843628E+02 +1.49304236440E-01 -7.30746372905E+01 +1.49942800574E-01 -7.29513847050E+01 +5.57707051659E-01 +1.29108258446E+02
1.52250000000E+08 +5.48293904530E-01 +1.31520450181E+02 +1.50274767221E-01 -7.44558663198E+01 +1.50867093626E-01 -7.43568621018E+01 +5.51824885447E-01 +1.28022064387E+02
1.52500000000E+08 +5.43409725097E-01 +1.30388544764E+02 +1.51215852584E-01 -7.58232794005E+01 +1.51775002691E-01 -7.57498170116E+01 +5.45995632510E-01 +1.26915446051E+02
1.52750000000E+08 +5.38272787264E-01 +1.29252094612E+02 +1.52251506680E-01 -7.71988779210E+01 +1.52741935089E-01 -7.71463994209E+01 +5.40003988342E-01 +1.25787004103E+02
1.53000000000E+08 +5.32960282711E-01 +1.28095747120E+02 +1.53406359498E-01 -7.86311007840E+01 +1.53816179210E-01 -7.85901934705E+01 +5.33967552248E-01 +1.24647607418E+02
1.53250000000E+08 +5.27321896514E-01 +1.26928000393E+02 +1.54560659584E-01 -8.01189776984E+01 +1.54898245564E-01 -8.00864767233E+01 +5.27818735747E-01 +1.23513564023E+02
1.53500000000E+08 +5.21513108687E-01 +1.25773475518E+02 +1.55541368354E-01 -8.16592004317E+01 +1.55853623142E-01 -8.16193362210E+01 +5.21649231283E-01 +1.22358099949E+02
1.53750000000E+08 +5.15540184080E-01 +1.24601739338E+02 +1.56538962907E-01 -8.32030031458E+01 +1.56763831869E-01 -8.31578625897E+01 +5.15423097829E-01 +1.21198643033E+02
1.54000000000E+08 +5.09360445946E-01 +1.23422045830E+02 +1.57503691089E-01 -8.47670604123E+01 +1.57714981599E-01 -8.47101660843E+01 +5.09001989407E-01 +1.20039501330E+02
1.54250000000E+08 +5.02868885727E-01 +1.22253614985E+02 +1.58372224104E-01 -8.63839973391E+01 +1.58564486868E-01 -8.63114906384E+01 +5.02727362811E-01 +1.18888481342E+02
1.54500000000E+08 +4.96322559242E-01 +1.21100171322E+02 +1.59218409116E-01 -8.79879666210E+01 +1.59400576459E-01 -8.79058878002E+01 +4.96466249236E-01 +1.17731653883E+02
1.54750000000E+08 +4.89789061475E-01 +1.19944039414E+02 +1.60034820919E-01 -8.96389705514E+01 +1.60181995720E-01 -8.95458000240E+01 +4.90129263530E-01 +1.16559750015E+02
1.55000000000E+08 +4.82978428958E-01 +1.18793295633E+02 +1.60692917778E-01 -9.13411203536E+01 +1.60852061520E-01 -9.12423381807E+01 +4.83907372497E-01 +1.15371684862E+02
1.55250000000E+08 +4.76199407824E-01 +1.17663794044E+02 +1.61146118506E-01 -9.30571147770E+01 +1.61352642957E-01 -9.29479421343E+01 +4.77742978831E-01 +1.14176046313E+02
1.55500000000E+08 +4.69453452319E-01 +1.16550084057E+02 +1.61347360551E-01 -9.47181902098E+01 +1.61557651336E-01 -9.46178122484E+01 +4.71269026191E-01 +1.12950916139E+02
1.55750000000E+08 +4.62679098419E-01 +1.15424389505E+02 +1.61539770031E-01 -9.63356275894E+01 +1.61783241939E-01 -9.62221049739E+01 +4.64821571687E-01 +1.11732511566E+02
1.56000000000E+08 +4.55948285086E-01 +1.14303652392E+02 +1.61782573851E-01 -9.79301237687E+01 +1.62047379417E-01 -9.78292061777E+01 +4.58257352161E-01 +1.10499825281E+02
1.56250000000E+08 +4.49156373729E-01 +1.13196991162E+02 +1.61969358276E-01 -9.95429296119E+01 +1.62248668432E-01 -9.94463629857E+01 +4.51555694835E-01 +1.09261742766E+02
1.56500000000E+08 +4.42418502967E-01 +1.12082922491E+02 +1.62054235791E-01 -1.01149336591E+02 +1.62353350566E-01 -1.01060535625E+02 +4.44870466730E-01 +1.08023186845E+02
1.56750000000E+08 +4.35544431164E-01 +1.10977824867E+02 +1.62033838876E-01 -1.02718750837E+02 +1.62350350443E-01 -1.02640234387E+02 +4.38169714862E-01 +1.06767956031E+02
1.57000000000E+08 +4.28686292472E-01 +1.09883905255E+02 +1.62048374323E-01 -1.04263806997E+02 +1.62318371856E-01 -1.04205711207E+02 +4.31332886509E-01 +1.05498476700E+02
1.57250000000E+08 +4.21921434932E-01 +1.08799916815E+02 +1.61959712254E-01 -1.05796216957E+02 +1.62228268565E-01 -1.05747876455E+02 +4.24281061346E-01 +1.04235874922E+02
1.57500000000E+08 +4.15237226141E-01 +1.07714030103E+02 +1.61891782047E-01 -1.07277038214E+02 +1.62112858401E-01 -1.07231380379E+02 +4.17205615532E-01 +1.02988323751E+02
1.57750000000E+08 +4.08564001552E-01 +1.06615470933E+02 +1.61912346490E-01 -1.08745838092E+02 +1.62096067982E-01 -1.08706005987E+02 +4.10188190718E-01 +1.01736879833E+02
1.58000000000E+08 +4.01774390662E-01 +1.05535875309E+02 +1.61975163346E-01 -1.10226139109E+02 +1.62109602656E-01 -1.10192054203E+02 +4.03206046381E-01 +1.00483489311E+02
1.58250000000E+08 +3.95035367209E-01 +1.04470816217E+02 +1.61968572579E-01 -1.11692967941E+02 +1.62030901878E-01 -1.11659492313E+02 +3.96206834518E-01 +9.92371463250E+01
1.58500000000E+08 +3.88535620556E-01 +1.03403757419E+02 +1.62025286769E-01 -1.13139758679E+02 +1.62011303070E-01 -1.13099711169E+02 +3.89288822909E-01 +9.79995114625E+01
1.58750000000E+08 +3.82000627792E-01 +1.02321827200E+02 +1.62112040098E-01 -1.14599546951E+02 +1.62058215090E-01 -1.14549254635E+02 +3.82521157507E-01 +9.67535651078E+01
1.59000000000E+08 +3.75400815478E-01 +1.01244246269E+02 +1.62167392526E-01 -1.16086070006E+02 +1.62069870915E-01 -1.16015566536E+02 +3.75786580591E-01 +9.55023660453E+01
1.59250000000E+08 +3.68963410296E-01 +1.00162747206E+02 +1.62141609404E-01 -1.17564021247E+02 +1.62004986759E-01 -1.17472176986E+02 +3.69096609809E-01 +9.42451071363E+01
1.59500000000E+08 +3.62640535312E-01 +9.90826801489E+01 +1.62100879869E-01 -1.19020600150E+02 +1.61948221012E-01 -1.18912077986E+02 +3.62514271654E-01 +9.29946050091E+01
1.59750000000E+08 +3.56216458787E-01 +9.79807261778E+01 +1.62058752770E-01 -1.20470593756E+02 +1.61925971709E-01 -1.20333233174E+02 +3.56179773818E-01 +9.17397545846E+01
1.60000000000E+08 +3.49909893313E-01 +9.68896056100E+01 +1.62044443364E-01 -1.21905898320E+02 +1.61885612216E-01 -1.21744659356E+02 +3.50010099140E-01 +9.04475265056E+01
1.60250000000E+08 +3.43749204716E-01 +9.58022899685E+01 +1.61984857397E-01 -1.23316812101E+02 +1.61865554298E-01 -1.23140800112E+02 +3.43894305019E-01 +8.91201183254E+01
1.60500000000E+08 +3.37746420522E-01 +9.46853178643E+01 +1.62058776641E-01 -1.24720327858E+02 +1.61968160281E-01 -1.24512333936E+02 +3.37692753566E-01 +8.77582168864E+01
1.60750000000E+08 +3.31735629169E-01 +9.35567007545E+01 +1.62225201203E-01 -1.26150408831E+02 +1.62182715117E-01 -1.25931326657E+02 +3.31317907500E-01 +8.63895672288E+01
1.61000000000E+08 +3.25785041940E-01 +9.24022841206E+01 +1.62373236271E-01 -1.27623740064E+02 +1.62381785098E-01 -1.27392947394E+02 +3.24992602825E-01 +8.50315137485E+01
1.61250000000E+08 +3.19795705889E-01 +9.12365577716E+01 +1.62451825171E-01 -1.29108237589E+02 +1.62530437302E-01 -1.28870895568E+02 +3.18804256173E-01 +8.36826639982E+01
1.61500000000E+08 +3.13860695395E-01 +9.00749457954E+01 +1.62503343105E-01 -1.30605023616E+02 +1.62623499760E-01 -1.30360618767E+02 +3.12787149974E-01 +8.22995372072E+01
1.61750000000E+08 +3.07893296749E-01 +8.89063981196E+01 +1.62472841376E-01 -1.32112961768E+02 +1.62685294441E-01 -1.31872476294E+02 +3.06746006924E-01 +8.08550739945E+01
1.62000000000E+08 +3.02050480750E-01 +8.77753640666E+01 +1.62434756766E-01 -1.33625130750E+02 +1.62700489570E-01 -1.33387854205E+02 +3.00596460352E-01 +7.93995671166E+01
1.62250000000E+08 +2.96432632258E-01 +8.66042368749E+01 +1.62339260658E-01 -1.35144241668E+02 +1.62638337058E-01 -1.34909159562E+02 +2.94377325947E-01 +7.79307785871E+01
1.62500000000E+08 +2.90861469937E-01 +8.54078695148E+01 +1.62147949855E-01 -1.36671064368E+02 +1.62501209902E-01 -1.36457641994E+02 +2.88162123982E-01 +7.64440048854E+01
1.62750000000E+08 +2.85263545474E-01 +8.42181181217E+01 +1.61830177121E-01 -1.38203619144E+02 +1.62222715285E-01 -1.37997413039E+02 +2.81880466868E-01 +7.49559695830E+01
1.63000000000E+08 +2.79849179403E-01 +8.30137355281E+01 +1.61458880555E-01 -1.39691763698E+02 +1.61884220254E-01 -1.39498858661E+02 +2.75685494268E-01 +7.34466802587E+01
1.63250000000E+08 +2.74480016911E-01 +8.17819616007E+01 +1.61069673897E-01 -1.41145266459E+02 +1.61500788603E-01 -1.40969742087E+02 +2.69488159314E-01 +7.19199142753E+01
1.63500000000E+08 +2.69203732614E-01 +8.05127810776E+01 +1.60705898012E-01 -1.42584900987E+02 +1.61157823236E-01 -1.42430916774E+02 +2.63234000879E-01 +7.03769009849E+01
1.63750000000E+08 +2.63888793481E-01 +7.91989219133E+01 +1.60349360072E-01 -1.44023317548E+02 +1.60779064692E-01 -1.43876451435E+02 +2.56918572463E-01 +6.88324285908E+01
1.64000000000E+08 +2.58406115790E-01 +7.78712596423E+01 +1.59967241173E-01 -1.45447496951E+02 +1.60372515900E-01 -1.45304670559E+02 +2.50699310454E-01 +6.73353728754E+01
1.64250000000E+08 +2.52929171127E-01 +7.65253697293E+01 +1.59591891499E-01 -1.46859957182E+02 +1.60002135699E-01 -1.46719758956E+02 +2.44763377407E-01 +6.58314698265E+01
1.64500000000E+08 +2.47430937817E-01 +7.51460030315E+01 +1.59284874174E-01 -1.48254738094E+02 +1.59665932529E-01 -1.48134384044E+02 +2.39066820769E-01 +6.42857676188E+01
1.64750000000E+08 +2.41854021417E-01 +7.37664323990E+01 +1.58972458147E-01 -1.49661604422E+02 +1.59319639523E-01 -1.49538477127E+02 +2.33415280540E-01 +6.27044632501E+01
1.65000000000E+08 +2.36237374981E-01 +7.23809784007E+01 +1.58699047806E-01 -1.51055565720E+02 +1.59044890509E-01 -1.50942141426E+02 +2.27856208351E-01 +6.10994265899E+01
1.65250000000E+08 +2.30661169114E-01 +7.09746547754E+01 +1.58425593274E-01 -1.52496658032E+02 +1.58764200613E-01 -1.52384379045E+02 +2.22318177744E-01 +5.94607258035E+01
1.65500000000E+08 +2.25093765633E-01 +6.95301377125E+01 +1.58075219605E-01 -1.53951613780E+02 +1.58395211154E-01 -1.53826948735E+02 +2.16943662591E-01 +5.78112368654E+01
1.65750000000E+08 +2.19479298410E-01 +6.80668559431E+01 +1.57655277230E-01 -1.55381083476E+02 +1.57979198242E-01 -1.55259286180E+02 +2.11614334165E-01 +5.61336313333E+01
1.66000000000E+08 +2.13731952695E-01 +6.65945877516E+01 +1.57272214974E-01 -1.56817456674E+02 +1.57579580623E-01 -1.56692566184E+02 +2.06426121495E-01 +5.44399230923E+01
1.66250000000E+08 +2.07955974975E-01 +6.51207780917E+01 +1.56894245355E-01 -1.58255533035E+02 +1.57213884705E-01 -1.58130996120E+02 +2.01486403630E-01 +5.27019517964E+01
1.66500000000E+08 +2.02242182509E-01 +6.36549874631E+01 +1.56420069655E-01 -1.59738004666E+02 +1.56763293540E-01 -1.59599470423E+02 +1.96577109321E-01 +5.08960165126E+01
1.66750000000E+08 +1.96601862245E-01 +6.22106633951E+01 +1.55913012367E-01 -1.61211214272E+02 +1.56244190038E-01 -1.61087530840E+02 +1.91690570137E-01 +4.90001238751E+01
1.67000000000E+08 +1.91077262893E-01 +6.07228506792E+01 +1.55226879675E-01 -1.62684162868E+02 +1.55566845609E-01 -1.62558309045E+02 +1.86674957833E-01 +4.70733274865E+01
1.67250000000E+08 +1.85504508231E-01 +5.92354547897E+01 +1.54389357600E-01 -1.64157407343E+02 +1.54752908082E-01 -1.64025098144E+02 +1.81507484374E-01 +4.51273437322E+01
1.67500000000E+08 +1.79955237773E-01 +5.77529102847E+01 +1.53496672986E-01 -1.65561123794E+02 +1.53837396825E-01 -1.65433949695E+02 +1.76460196378E-01 +4.32062570286E+01
1.67750000000E+08 +1.74464120210E-01 +5.62864708342E+01 +1.52572953656E-01 -1.66887203557E+02 +1.52943959297E-01 -1.66774364369E+02 +1.71564883479E-01 +4.12685882289E+01
1.68000000000E+08 +1.69094693702E-01 +5.48932040376E+01 +1.51680588935E-01 -1.68187038238E+02 +1.52060051260E-01 -1.68075844039E+02 +1.66722533657E-01 +3.92790289979E+01
1.68250000000E+08 +1.63972669597E-01 +5.35077611081E+01 +1.50931410432E-01 -1.69449336242E+02 +1.51294167660E-01 -1.69338350000E+02 +1.62014709468E-01 +3.72746250261E+01
1.68500000000E+08 +1.59053959900E-01 +5.20802437256E+01 +1.50246171379E-01 -1.70723914155E+02 +1.50597182312E-01 -1.70633047313E+02 +1.57337466188E-01 +3.52237540834E+01
1.68750000000E+08 +1.54164186988E-01 +5.06440215988E+01 +1.49469137528E-01 -1.72034027564E+02 +1.49834997760E-01 -1.71934487058E+02 +1.52780614551E-01 +3.31428788802E+01
1.69000000000E+08 +1.49403967128E-01 +4.92167018845E+01 +1.48646178968E-01 -1.73301064794E+02 +1.49025362171E-01 -1.73209594027E+02 +1.48333943912E-01 +3.10426700749E+01
1.69250000000E+08 +1.44835777590E-01 +4.78150046549E+01 +1.47822440330E-01 -1.74515199550E+02 +1.48152137051E-01 -1.74437660126E+02 +1.43984806401E-01 +2.89392344791E+01
1.69500000000E+08 +1.40325768672E-01 +4.63830849074E+01 +1.47055014278E-01 -1.75720074131E+02 +1.47382032520E-01 -1.75627132950E+02 +1.39872744714E-01 +2.67890757415E+01
1.69750000000E+08 +1.36042658453E-01 +4.49784578245E+01 +1.46318029339E-01 -1.76878942254E+02 +1.46627484229E-01 -1.76800199611E+02 +1.36013174773E-01 +2.46200010597E+01
1.70000000000E+08 +1.32035884800E-01 +4.35369561778E+01 +1.45627416608E-01 -1.78024400836E+02 +1.45926955238E-01 -1.77944343588E+02 +1.32396304391E-01 +2.23421950413E+01
1.70250000000E+08 +1.28128766304E-01 +4.20024809007E+01 +1.44985666109E-01 -1.79140074378E+02 +1.45297036184E-01 -1.79054522078E+02 +1.28790755144E-01 +1.99508486733E+01
1.70500000000E+08 +1.24314668354E-01 +4.03915461845E+01 +1.44548083627E-01 +1.79773530475E+02 +1.44825427481E-01 +1.79850702597E+02 +1.25210294038E-01 +1.75649984291E+01
1.70750000000E+08 +1.20529420614E-01 +3.87240422762E+01 +1.44230941838E-01 +1.78628725911E+02 +1.44510020323E-01 +1.78714941033E+02 +1.21916954755E-01 +1.51629904920E+01
1.71000000000E+08 +1.16812904575E-01 +3.69850384419E+01 +1.43899552364E-01 +1.77440609207E+02 +1.44168790619E-01 +1.77520732632E+02 +1.18807062611E-01 +1.26676303256E+01
1.71250000000E+08 +1.13202066093E-01 +3.51849689838E+01 +1.43470949476E-01 +1.76260265065E+02 +1.43741175221E-01 +1.76348570819E+02 +1.15708324658E-01 +1.01166780629E+01
1.71500000000E+08 +1.09504015027E-01 +3.33330589290E+01 +1.43082990838E-01 +1.75086703918E+02 +1.43372211475E-01 +1.75173021186E+02 +1.12709452505E-01 +7.60300882109E+00
1.71750000000E+08 +1.05999996013E-01 +3.14426975504E+01 +1.42766797445E-01 +1.73925962412E+02 +1.43027270469E-01 +1.74026173425E+02 +1.10053695305E-01 +5.10129663559E+00
1.72000000000E+08 +1.02580525604E-01 +2.94585783362E+01 +1.42501421853E-01 +1.72747082122E+02 +1.42761319417E-01 +1.72843526428E+02 +1.07717425234E-01 +2.48202726164E+00
1.72250000000E+08 +9.92477639263E-02 +2.73808983826E+01 +1.42314646764E-01 +1.71566045949E+02 +1.42583833289E-01 +1.71656613813E+02 +1.05522414646E-01 -2.51279498738E-01
1.72500000000E+08 +9.58854931717E-02 +2.52585790705E+01 +1.42175590138E-01 +1.70295890628E+02 +1.42450094526E-01 +1.70388389546E+02 +1.03450750932E-01 -3.02199320459E+00
1.72750000000E+08 +9.27687125342E-02 +2.31581132745E+01 +1.41878555414E-01 +1.69006226599E+02 +1.42167863600E-01 +1.69096824374E+02 +1.01543337796E-01 -5.90996460560E+00
1.73000000000E+08 +8.98467577251E-02 +2.08178899698E+01 +1.41525084632E-01 +1.67705444728E+02 +1.41818519309E-01 +1.67787504477E+02 +9.96751722349E-02 -8.90841038048E+00
1.73250000000E+08 +8.69039894027E-02 +1.83725028881E+01 +1.41115789530E-01 +1.66409161976E+02 +1.41388867653E-01 +1.66482136738E+02 +9.78902482277E-02 -1.19431268352E+01
1.73500000000E+08 +8.39608066854E-02 +1.58587520751E+01 +1.40686042253E-01 +1.65099696159E+02 +1.40949866809E-01 +1.65191265281E+02 +9.62462484680E-02 -1.49840582567E+01
1.73750000000E+08 +8.11287409389E-02 +1.33191489620E+01 +1.40190096537E-01 +1.63805617032E+02 +1.40490265695E-01 +1.63880543633E+02 +9.47888901831E-02 -1.81257563765E+01
1.74000000000E+08 +7.84628326323E-02 +1.07743889572E+01 +1.39613896288E-01 +1.62494189984E+02 +1.39901405111E-01 +1.62562471226E+02 +9.33914677229E-02 -2.14059077057E+01
1.74250000000E+08 +7.60581031235E-02 +8.12351604971E+00 +1.39009229900E-01 +1.61225653508E+02 +1.39269184386E-01 +1.61283978961E+02 +9.19568635585E-02 -2.46716288841E+01
1.74500000000E+08 +7.37967031752E-02 +5.32262635958E+00 +1.38415877506E-01 +1.59945819625E+02 +1.38679917382E-01 +1.60023021696E+02 +9.06517594058E-02 -2.78753248304E+01
1.74750000000E+08 +7.15930481323E-02 +2.35006593558E+00 +1.37751724595E-01 +1.58652189668E+02 +1.38010057517E-01 +1.58717890264E+02 +8.95360881150E-02 -3.11608814621E+01
1.75000000000E+08 +6.94438748996E-02 -8.07797997958E-01 +1.37062580237E-01 +1.57401414534E+02 +1.37252440262E-01 +1.57459272214E+02 +8.84489402150E-02 -3.44205708464E+01
1.75250000000E+08 +6.72532007132E-02 -3.86937204653E+00 +1.36242961267E-01 +1.56139160007E+02 +1.36466433624E-01 +1.56212953813E+02 +8.75411474051E-02 -3.76633309116E+01
1.75500000000E+08 +6.52393633608E-02 -6.94238183487E+00 +1.35442643746E-01 +1.54948172966E+02 +1.35650953121E-01 +1.55012834559E+02 +8.66317559667E-02 -4.08067750560E+01
1.75750000000E+08 +6.35262576150E-02 -1.00586779107E+01 +1.34741502645E-01 +1.53778979481E+02 +1.34917713826E-01 +1.53842823448E+02 +8.59597443157E-02 -4.38039715210E+01
1.76000000000E+08 +6.19683385802E-02 -1.33227609374E+01 +1.33965086923E-01 +1.52565144665E+02 +1.34173707645E-01 +1.52645665724E+02 +8.55654537497E-02 -4.68192603263E+01
1.76250000000E+08 +6.05190359887E-02 -1.66583311056E+01 +1.33110069217E-01 +1.51401189261E+02 +1.33310450850E-01 +1.51472899268E+02 +8.52609290017E-02 -4.97657999059E+01
1.76500000000E+08 +5.93233312605E-02 -2.01574186895E+01 +1.32253410057E-01 +1.50264083781E+02 +1.32446556777E-01 +1.50340131649E+02 +8.52071227512E-02 -5.26733474808E+01
1.76750000000E+08 +5.82164267750E-02 -2.37947437400E+01 +1.31416401500E-01 +1.49181367410E+02 +1.31592531327E-01 +1.49260125984E+02 +8.52571767961E-02 -5.56147447590E+01
1.77000000000E+08 +5.71778702564E-02 -2.75495727143E+01 +1.30640557798E-01 +1.48152551018E+02 +1.30857335966E-01 +1.48226127165E+02 +8.52504913890E-02 -5.84773388545E+01
1.77250000000E+08 +5.61779361352E-02 -3.12821850224E+01 +1.29984068551E-01 +1.47120495596E+02 +1.30187195054E-01 +1.47204090217E+02 +8.53696896002E-02 -6.11679135778E+01
1.77500000000E+08 +5.53768966669E-02 -3.50590597946E+01 +1.29417018955E-01 +1.46068042294E+02 +1.29597379452E-01 +1.46152822116E+02 +8.56526361509E-02 -6.38208114131E+01
1.77750000000E+08 +5.46954335096E-02 -3.88191153212E+01 +1.28732245246E-01 +1.45016704093E+02 +1.28940952826E-01 +1.45110610505E+02 +8.60086977539E-02 -6.64153150190E+01
1.78000000000E+08 +5.42613828176E-02 -4.24569991576E+01 +1.28080587990E-01 +1.44034649187E+02 +1.28302101325E-01 +1.44127036441E+02 +8.64660855587E-02 -6.89739541535E+01
1.78250000000E+08 +5.40795338673E-02 -4.62658614415E+01 +1.27621125066E-01 +1.43082687628E+02 +1.27823588275E-01 +1.43164476684E+02 +8.68992895691E-02 -7.14944787148E+01
1.78500000000E+08 +5.40014448133E-02 -5.02153160984E+01 +1.27279436591E-01 +1.42087114777E+02 +1.27502845770E-01 +1.42166738322E+02 +8.74565245424E-02 -7.38799111536E+01
