# Hz S MA R 50
! Planar, Obzor-304, 08125003, 3.51/02
! Дата: 26.03.2019 11:26:25
! Данные: Формат (Калибровка)
! Частота                  S11: Mag/Ang (F2)                     S21: Mag/Ang (F2)                     S12: Mag/Ang (F2)                     S22: Mag/Ang (F2)           
1.50000000000E+08 +5.82462157908E-01 +1.40680781571E+02 +1.28922398668E-01 -1.20805135552E+02 +1.29696784685E-01 -1.20351887590E+02 +5.32637933465E-01 +1.18875864440E+02
1.50250000000E+08 +5.79159681916E-01 +1.39809612614E+02 +1.29234917265E-01 -1.22050507996E+02 +1.30119816496E-01 -1.21618939984E+02 +5.26962170608E-01 +1.17554027043E+02
1.50500000000E+08 +5.75908410718E-01 +1.38897620567E+02 +1.29581225559E-01 -1.23245112954E+02 +1.30560149040E-01 -1.22857865125E+02 +5.21202914269E-01 +1.16233188900E+02
1.50750000000E+08 +5.72588511428E-01 +1.37951669845E+02 +1.30000203559E-01 -1.24445803894E+02 +1.31047489565E-01 -1.24054935219E+02 +5.15448002094E-01 +1.14886459995E+02
1.51000000000E+08 +5.69184915141E-01 +1.36964157809E+02 +1.30507023943E-01 -1.25633441710E+02 +1.31612741859E-01 -1.25317304568E+02 +5.09583339730E-01 +1.13523648842E+02
1.51250000000E+08 +5.65621424164E-01 +1.35939888620E+02 +1.31035092967E-01 -1.26830800252E+02 +1.32169729918E-01 -1.26560269532E+02 +5.03653263862E-01 +1.12145125604E+02
1.51500000000E+08 +5.61870980168E-01 +1.34891042102E+02 +1.31529806993E-01 -1.28009825006E+02 +1.32696136446E-01 -1.27796608779E+02 +4.97704208507E-01 +1.10765476747E+02
1.51750000000E+08 +5.57885323771E-01 +1.33808191426E+02 +1.32113920145E-01 -1.29179368653E+02 +1.33256829251E-01 -1.29008614960E+02 +4.91800114421E-01 +1.09367065551E+02
1.52000000000E+08 +5.53529306232E-01 +1.32699984085E+02 +1.32802508683E-01 -1.30341426103E+02 +1.33921137711E-01 -1.30214948198E+02 +4.85993406913E-01 +1.07952461706E+02
1.52250000000E+08 +5.48897793672E-01 +1.31571281776E+02 +1.33496326182E-01 -1.31568147592E+02 +1.34565761008E-01 -1.31447216695E+02 +4.80053188645E-01 +1.06516744870E+02
1.52500000000E+08 +5.43996878674E-01 +1.30452600927E+02 +1.34181910872E-01 -1.32771056153E+02 +1.35199992665E-01 -1.32694987171E+02 +4.74097625013E-01 +1.05057552355E+02
1.52750000000E+08 +5.38944463871E-01 +1.29311146126E+02 +1.34823184296E-01 -1.33984180895E+02 +1.35767020431E-01 -1.33934815969E+02 +4.68098752159E-01 +1.03585533241E+02
1.53000000000E+08 +5.33630354434E-01 +1.28149144226E+02 +1.35503348444E-01 -1.35179527264E+02 +1.36409068012E-01 -1.35138584453E+02 +4.62153702209E-01 +1.02105179702E+02
1.53250000000E+08 +5.28033928230E-01 +1.26984776234E+02 +1.36203717754E-01 -1.36372227567E+02 +1.37068479034E-01 -1.36336373934E+02 +4.56203617258E-01 +1.00619613339E+02
1.53500000000E+08 +5.22234011850E-01 +1.25825325858E+02 +1.36927882075E-01 -1.37569374764E+02 +1.37737844291E-01 -1.37520637033E+02 +4.50262476796E-01 +9.91127655912E+01
1.53750000000E+08 +5.16280728634E-01 +1.24654685643E+02 +1.37726165992E-01 -1.38750462060E+02 +1.38511535019E-01 -1.38706840512E+02 +4.44408000078E-01 +9.75803486198E+01
1.54000000000E+08 +5.10158143216E-01 +1.23477773170E+02 +1.38577426615E-01 -1.39963802943E+02 +1.39331781921E-01 -1.39919278562E+02 +4.38498290057E-01 +9.60294720787E+01
1.54250000000E+08 +5.03714596488E-01 +1.22304065264E+02 +1.39396955136E-01 -1.41205321169E+02 +1.40140113308E-01 -1.41148004035E+02 +4.32514277350E-01 +9.44709377819E+01
1.54500000000E+08 +4.97210779201E-01 +1.21152219610E+02 +1.40180831944E-01 -1.42414179466E+02 +1.40932178290E-01 -1.42357767963E+02 +4.26690469718E-01 +9.29129664453E+01
1.54750000000E+08 +4.90717905374E-01 +1.19994908770E+02 +1.41067533573E-01 -1.43613020325E+02 +1.41815751034E-01 -1.43552508744E+02 +4.20925957511E-01 +9.13219173127E+01
1.55000000000E+08 +4.83979128433E-01 +1.18834656369E+02 +1.42033548047E-01 -1.44869736217E+02 +1.42833338983E-01 -1.44807188254E+02 +4.15157858258E-01 +8.96819267846E+01
1.55250000000E+08 +4.77233452046E-01 +1.17702133312E+02 +1.42982101282E-01 -1.46147571121E+02 +1.43765504484E-01 -1.46091542702E+02 +4.09232684103E-01 +8.80353016330E+01
1.55500000000E+08 +4.70536742787E-01 +1.16572807272E+02 +1.43884592225E-01 -1.47423108723E+02 +1.44695557621E-01 -1.47366458038E+02 +4.03232604189E-01 +8.63817436752E+01
1.55750000000E+08 +4.63819368867E-01 +1.15441336987E+02 +1.44832772435E-01 -1.48713291211E+02 +1.45670249465E-01 -1.48674698804E+02 +3.97267600925E-01 +8.47094871180E+01
1.56000000000E+08 +4.57114938648E-01 +1.14312710971E+02 +1.45772826273E-01 -1.50030543716E+02 +1.46626308732E-01 -1.50008228573E+02 +3.91289496058E-01 +8.30315985788E+01
1.56250000000E+08 +4.50332045046E-01 +1.13186701955E+02 +1.46619568451E-01 -1.51348919846E+02 +1.47493770629E-01 -1.51345171148E+02 +3.85282456985E-01 +8.13280162965E+01
1.56500000000E+08 +4.43582376646E-01 +1.12067035536E+02 +1.47600919406E-01 -1.52647955849E+02 +1.48443366725E-01 -1.52663183390E+02 +3.79385402614E-01 +7.96166294553E+01
1.56750000000E+08 +4.36694925801E-01 +1.10947688202E+02 +1.48540942818E-01 -1.54001762315E+02 +1.49369391244E-01 -1.54041464613E+02 +3.73487212626E-01 +7.78762895619E+01
1.57000000000E+08 +4.29844595357E-01 +1.09838198985E+02 +1.49469091091E-01 -1.55384144983E+02 +1.50252383264E-01 -1.55433785660E+02 +3.67495051401E-01 +7.61083380938E+01
1.57250000000E+08 +4.23037960575E-01 +1.08738359277E+02 +1.50304888856E-01 -1.56778447892E+02 +1.51039986578E-01 -1.56845962079E+02 +3.61497320805E-01 +7.43475068251E+01
1.57500000000E+08 +4.16308501202E-01 +1.07646082514E+02 +1.51095316922E-01 -1.58172957465E+02 +1.51772985280E-01 -1.58237888247E+02 +3.55594280516E-01 +7.25828141190E+01
1.57750000000E+08 +4.09562998337E-01 +1.06531459418E+02 +1.51913843064E-01 -1.59567769601E+02 +1.52529830892E-01 -1.59645530907E+02 +3.49824856514E-01 +7.07857713432E+01
1.58000000000E+08 +4.02709934998E-01 +1.05436554977E+02 +1.52652600882E-01 -1.60994997476E+02 +1.53207700151E-01 -1.61074828978E+02 +3.44090865682E-01 +6.89726889107E+01
1.58250000000E+08 +3.95908958630E-01 +1.04358535164E+02 +1.53242282280E-01 -1.62401878690E+02 +1.53750411831E-01 -1.62480636133E+02 +3.38422554019E-01 +6.71554647219E+01
1.58500000000E+08 +3.89318583086E-01 +1.03280282627E+02 +1.53911313137E-01 -1.63779347344E+02 +1.54361697908E-01 -1.63833534995E+02 +3.32932028391E-01 +6.53236052239E+01
1.58750000000E+08 +3.82727118544E-01 +1.02187849987E+02 +1.54579495915E-01 -1.65170591730E+02 +1.54982825598E-01 -1.65218361163E+02 +3.27568484787E-01 +6.34589449181E+01
1.59000000000E+08 +3.76043519058E-01 +1.01104872611E+02 +1.55214508348E-01 -1.66600086459E+02 +1.55612152191E-01 -1.66634031677E+02 +3.22217107559E-01 +6.15622754203E+01
1.59250000000E+08 +3.69570391533E-01 +1.00017661441E+02 +1.55761915125E-01 -1.68015986049E+02 +1.56120045660E-01 -1.68023774929E+02 +3.16968753116E-01 +5.96545691798E+01
1.59500000000E+08 +3.63177042838E-01 +9.89203334122E+01 +1.56313017517E-01 -1.69415922011E+02 +1.56664378026E-01 -1.69413439923E+02 +3.11784047775E-01 +5.77258054881E+01
1.59750000000E+08 +3.56722608255E-01 +9.78095996947E+01 +1.56841033969E-01 -1.70853646672E+02 +1.57190774972E-01 -1.70826965335E+02 +3.06643668181E-01 +5.57733788507E+01
1.60000000000E+08 +3.50381408375E-01 +9.67140743248E+01 +1.57230818839E-01 -1.72281993107E+02 +1.57579023362E-01 -1.72242393565E+02 +3.01542220050E-01 +5.38292112229E+01
1.60250000000E+08 +3.44192646645E-01 +9.56105491032E+01 +1.57509824987E-01 -1.73667575396E+02 +1.57879814431E-01 -1.73618513006E+02 +2.96604665939E-01 +5.18837733412E+01
1.60500000000E+08 +3.38109580470E-01 +9.44788388699E+01 +1.57892529439E-01 -1.75052078763E+02 +1.58280902805E-01 -1.74974035140E+02 +2.91861488210E-01 +4.99067987178E+01
1.60750000000E+08 +3.32020249515E-01 +9.33370093777E+01 +1.58165804911E-01 -1.76425965049E+02 +1.58607771491E-01 -1.76349034320E+02 +2.87220029164E-01 +4.79095099791E+01
1.61000000000E+08 +3.26028721153E-01 +9.21680469105E+01 +1.58433535742E-01 -1.77768896541E+02 +1.58892302813E-01 -1.77686124815E+02 +2.82663029365E-01 +4.58835800723E+01
1.61250000000E+08 +3.19959981866E-01 +9.09816494866E+01 +1.58777151459E-01 -1.79103263353E+02 +1.59295258069E-01 -1.79008971365E+02 +2.78128824810E-01 +4.38437279627E+01
1.61500000000E+08 +3.13903369099E-01 +8.98085101247E+01 +1.59189459907E-01 +1.79554441714E+02 +1.59725071628E-01 +1.79645160998E+02 +2.73728634605E-01 +4.17939190665E+01
1.61750000000E+08 +3.07846915004E-01 +8.86251173409E+01 +1.59478310183E-01 +1.78171433879E+02 +1.60086276277E-01 +1.78256160360E+02 +2.69357517929E-01 +3.97182575663E+01
1.62000000000E+08 +3.01927593829E-01 +8.74827945005E+01 +1.59682700407E-01 +1.76816410706E+02 +1.60300643999E-01 +1.76892895238E+02 +2.65100268921E-01 +3.76605754521E+01
1.62250000000E+08 +2.96217272503E-01 +8.62991640121E+01 +1.59946811572E-01 +1.75505296890E+02 +1.60583280719E-01 +1.75582281638E+02 +2.61076280466E-01 +3.55896647829E+01
1.62500000000E+08 +2.90515546629E-01 +8.50924767835E+01 +1.60297619993E-01 +1.74176839372E+02 +1.60979049207E-01 +1.74247496946E+02 +2.57250244599E-01 +3.34587488282E+01
1.62750000000E+08 +2.84820801132E-01 +8.38996747993E+01 +1.60567497564E-01 +1.72812546152E+02 +1.61250379143E-01 +1.72876169206E+02 +2.53447134841E-01 +3.13193280321E+01
1.63000000000E+08 +2.79317854319E-01 +8.26901792122E+01 +1.60768071009E-01 +1.71459178839E+02 +1.61471276745E-01 +1.71507624871E+02 +2.49736104435E-01 +2.91730586617E+01
1.63250000000E+08 +2.73868338200E-01 +8.14574155506E+01 +1.60965015201E-01 +1.70130154579E+02 +1.61682857407E-01 +1.70174089035E+02 +2.46225857546E-01 +2.70207473038E+01
1.63500000000E+08 +2.68463788472E-01 +8.01870264938E+01 +1.61211572854E-01 +1.68788096738E+02 +1.61899863202E-01 +1.68821076092E+02 +2.42877278446E-01 +2.48338169211E+01
1.63750000000E+08 +2.63053660337E-01 +7.88673183039E+01 +1.61390280742E-01 +1.67429453290E+02 +1.62092660323E-01 +1.67466358273E+02 +2.39659545429E-01 +2.26176917859E+01
1.64000000000E+08 +2.57489608075E-01 +7.75509145294E+01 +1.61445933405E-01 +1.66086278338E+02 +1.62156243593E-01 +1.66109326272E+02 +2.36578143208E-01 +2.03916929013E+01
1.64250000000E+08 +2.51936489106E-01 +7.62112958237E+01 +1.61561492608E-01 +1.64748812821E+02 +1.62249568140E-01 +1.64779970045E+02 +2.33585417287E-01 +1.81417212569E+01
1.64500000000E+08 +2.46350347402E-01 +7.48381908395E+01 +1.61610458903E-01 +1.63401499584E+02 +1.62310748186E-01 +1.63427602795E+02 +2.30661880425E-01 +1.58736319593E+01
1.64750000000E+08 +2.40754854754E-01 +7.34714152237E+01 +1.61504893840E-01 +1.62076658878E+02 +1.62203973802E-01 +1.62102863314E+02 +2.27803355731E-01 +1.36059008689E+01
1.65000000000E+08 +2.35091373083E-01 +7.20811274999E+01 +1.61409005014E-01 +1.60801532371E+02 +1.62107425472E-01 +1.60830053955E+02 +2.25021352879E-01 +1.13660461579E+01
1.65250000000E+08 +2.29473346784E-01 +7.06803744032E+01 +1.61344631114E-01 +1.59554036560E+02 +1.62079103969E-01 +1.59591109675E+02 +2.22470618002E-01 +9.12585624180E+00
1.65500000000E+08 +2.23806166086E-01 +6.92486830420E+01 +1.61407433213E-01 +1.58317111058E+02 +1.62139153715E-01 +1.58347197718E+02 +2.20096476482E-01 +6.86822530909E+00
1.65750000000E+08 +2.18137273176E-01 +6.77921567604E+01 +1.61461475225E-01 +1.57056144124E+02 +1.62236617313E-01 +1.57091044739E+02 +2.17695102402E-01 +4.60851823570E+00
1.66000000000E+08 +2.12367279531E-01 +6.63393203658E+01 +1.61448430424E-01 +1.55802903937E+02 +1.62238263644E-01 +1.55827714287E+02 +2.15367736744E-01 +2.37119983024E+00
1.66250000000E+08 +2.06592906548E-01 +6.48904167415E+01 +1.61404551609E-01 +1.54574817332E+02 +1.62244433932E-01 +1.54602140234E+02 +2.13256133388E-01 +1.73395541944E-01
1.66500000000E+08 +2.00906404825E-01 +6.34362477645E+01 +1.61488654214E-01 +1.53362650056E+02 +1.62352831051E-01 +1.53380899642E+02 +2.11209617272E-01 -2.03289830252E+00
1.66750000000E+08 +1.95309036973E-01 +6.19903017005E+01 +1.61574886497E-01 +1.52139678895E+02 +1.62490599411E-01 +1.52159014156E+02 +2.09292878253E-01 -4.20438640800E+00
1.67000000000E+08 +1.89779801324E-01 +6.04996588250E+01 +1.61711967359E-01 +1.50919725905E+02 +1.62642782683E-01 +1.50921325028E+02 +2.07659905167E-01 -6.35459012753E+00
1.67250000000E+08 +1.84201388234E-01 +5.90249934166E+01 +1.61863773390E-01 +1.49691895502E+02 +1.62848350863E-01 +1.49679701647E+02 +2.06155658042E-01 -8.53019458083E+00
1.67500000000E+08 +1.78618611628E-01 +5.75528248570E+01 +1.62047292982E-01 +1.48436069243E+02 +1.63032855259E-01 +1.48403600936E+02 +2.04738251121E-01 -1.07062782136E+01
1.67750000000E+08 +1.73153615280E-01 +5.61103796475E+01 +1.62256356851E-01 +1.47150065262E+02 +1.63245185048E-01 +1.47090392852E+02 +2.03444918312E-01 -1.28845220919E+01
1.68000000000E+08 +1.67811841528E-01 +5.47390163412E+01 +1.62354831908E-01 +1.45837496244E+02 +1.63329918508E-01 +1.45766370211E+02 +2.02223436329E-01 -1.50596526221E+01
1.68250000000E+08 +1.62758237535E-01 +5.33610743001E+01 +1.62313893895E-01 +1.44527887029E+02 +1.63313478110E-01 +1.44442213925E+02 +2.01019444113E-01 -1.72321162746E+01
1.68500000000E+08 +1.57870405269E-01 +5.19432445562E+01 +1.62227590238E-01 +1.43252967072E+02 +1.63208377968E-01 +1.43142574462E+02 +1.99883942384E-01 -1.93372196665E+01
1.68750000000E+08 +1.53010539196E-01 +5.05075502433E+01 +1.62177366985E-01 +1.41983123847E+02 +1.63144992254E-01 +1.41867590679E+02 +1.99079248709E-01 -2.14381037049E+01
1.69000000000E+08 +1.48272774002E-01 +4.91028751744E+01 +1.62099434069E-01 +1.40705567839E+02 +1.63041488424E-01 +1.40571775038E+02 +1.98459319607E-01 -2.35648156846E+01
1.69250000000E+08 +1.43738980544E-01 +4.77125305279E+01 +1.62004891838E-01 +1.39450743365E+02 +1.62959599369E-01 +1.39302973479E+02 +1.97832040957E-01 -2.56993867886E+01
1.69500000000E+08 +1.39277635491E-01 +4.62903257898E+01 +1.61924003384E-01 +1.38158216133E+02 +1.62879649157E-01 +1.38005509952E+02 +1.97117364191E-01 -2.78418755725E+01
1.69750000000E+08 +1.35056479388E-01 +4.48997791420E+01 +1.61775257365E-01 +1.36877329101E+02 +1.62712747526E-01 +1.36705518409E+02 +1.96460630344E-01 -2.99031758145E+01
1.70000000000E+08 +1.31100979801E-01 +4.34613823904E+01 +1.61538797639E-01 +1.35592463978E+02 +1.62483835256E-01 +1.35401426061E+02 +1.96017011093E-01 -3.19340931553E+01
1.70250000000E+08 +1.27240664485E-01 +4.19279734493E+01 +1.61276715053E-01 +1.34317299239E+02 +1.62210863139E-01 +1.34112124608E+02 +1.95653539829E-01 -3.39609534482E+01
1.70500000000E+08 +1.23467767879E-01 +4.03331824506E+01 +1.60953874813E-01 +1.33030157189E+02 +1.61864816466E-01 +1.32810454781E+02 +1.95370144562E-01 -3.59862833740E+01
1.70750000000E+08 +1.19731492445E-01 +3.86670216671E+01 +1.60524517046E-01 +1.31771365556E+02 +1.61409247662E-01 +1.31526151927E+02 +1.95069058283E-01 -3.79782900535E+01
1.71000000000E+08 +1.16050870595E-01 +3.69258511155E+01 +1.60006266594E-01 +1.30555112481E+02 +1.60876932709E-01 +1.30307647196E+02 +1.94810557102E-01 -3.99353453056E+01
1.71250000000E+08 +1.12459296026E-01 +3.51363815631E+01 +1.59561216699E-01 +1.29391928512E+02 +1.60414383828E-01 +1.29103653499E+02 +1.94607736891E-01 -4.18603454500E+01
1.71500000000E+08 +1.08840849142E-01 +3.32923418861E+01 +1.59132085440E-01 +1.28193152030E+02 +1.59923619006E-01 +1.27884209669E+02 +1.94387180441E-01 -4.37717553334E+01
1.71750000000E+08 +1.05366052354E-01 +3.14081861541E+01 +1.58618697535E-01 +1.27039199698E+02 +1.59363876760E-01 +1.26726191986E+02 +1.94275158790E-01 -4.56419447471E+01
1.72000000000E+08 +1.02015119302E-01 +2.94542566689E+01 +1.58112823432E-01 +1.25933570694E+02 +1.58823789640E-01 +1.25585985308E+02 +1.94194360728E-01 -4.75046502729E+01
1.72250000000E+08 +9.87324850173E-02 +2.73629978562E+01 +1.57685049969E-01 +1.24848877155E+02 +1.58318494658E-01 +1.24491658995E+02 +1.93963521484E-01 -4.93315740516E+01
1.72500000000E+08 +9.54488131163E-02 +2.52517264180E+01 +1.57327878384E-01 +1.23781236197E+02 +1.57913255991E-01 +1.23410678165E+02 +1.93769443350E-01 -5.10909640075E+01
1.72750000000E+08 +9.23886936953E-02 +2.31396477941E+01 +1.57009266651E-01 +1.22715745027E+02 +1.57519453611E-01 +1.22334537264E+02 +1.93759875505E-01 -5.28042024813E+01
1.73000000000E+08 +8.95301466865E-02 +2.07935070301E+01 +1.56834503158E-01 +1.21640313980E+02 +1.57247458110E-01 +1.21234192624E+02 +1.93814476341E-01 -5.45397912447E+01
1.73250000000E+08 +8.66480520930E-02 +1.83491494707E+01 +1.56595187792E-01 +1.20540445540E+02 +1.56921179036E-01 +1.20120619420E+02 +1.93812356237E-01 -5.62332744774E+01
1.73500000000E+08 +8.37653772731E-02 +1.58614686427E+01 +1.56285699093E-01 +1.19436595103E+02 +1.56522840127E-01 +1.19015443153E+02 +1.93859284554E-01 -5.78776758623E+01
1.73750000000E+08 +8.10355670940E-02 +1.33152527056E+01 +1.55930520659E-01 +1.18360954614E+02 +1.56077554568E-01 +1.17940156355E+02 +1.94071054015E-01 -5.94942705924E+01
1.74000000000E+08 +7.84885229606E-02 +1.07601243018E+01 +1.55606311959E-01 +1.17319026820E+02 +1.55656712227E-01 +1.16908249490E+02 +1.94446126740E-01 -6.11243537360E+01
1.74250000000E+08 +7.61379479641E-02 +8.09397463449E+00 +1.55419105612E-01 +1.16289813131E+02 +1.55369491195E-01 +1.15886771343E+02 +1.94822957477E-01 -6.27778206512E+01
1.74500000000E+08 +7.39681782313E-02 +5.27302831010E+00 +1.55264982211E-01 +1.15238918900E+02 +1.55130237024E-01 +1.14862843620E+02 +1.95133856325E-01 -6.44185407437E+01
1.74750000000E+08 +7.18663792272E-02 +2.23631139374E+00 +1.55063424098E-01 +1.14168993646E+02 +1.54934153380E-01 +1.13801955024E+02 +1.95440675409E-01 -6.60474274019E+01
1.75000000000E+08 +6.97652250259E-02 -9.23019438001E-01 +1.54909630810E-01 +1.13077229438E+02 +1.54663095064E-01 +1.12729551195E+02 +1.95713545696E-01 -6.76550883129E+01
1.75250000000E+08 +6.76721458099E-02 -4.04621442239E+00 +1.54511997186E-01 +1.12014319096E+02 +1.54270478200E-01 +1.11683094604E+02 +1.95993053483E-01 -6.92056348004E+01
1.75500000000E+08 +6.57342503308E-02 -7.16958524200E+00 +1.54219473886E-01 +1.11007824560E+02 +1.53931900566E-01 +1.10689372695E+02 +1.96293865709E-01 -7.07598211183E+01
1.75750000000E+08 +6.40602944411E-02 -1.03660890304E+01 +1.54104118221E-01 +1.10028958680E+02 +1.53773306812E-01 +1.09735420807E+02 +1.96586702558E-01 -7.22881277791E+01
1.76000000000E+08 +6.25532890402E-02 -1.36712607412E+01 +1.54084382493E-01 +1.09029661670E+02 +1.53735521321E-01 +1.08762456806E+02 +1.96843062380E-01 -7.37573497053E+01
1.76250000000E+08 +6.11342979592E-02 -1.70926879205E+01 +1.54102211162E-01 +1.07979488247E+02 +1.53740791911E-01 +1.07716534634E+02 +1.97222497716E-01 -7.52026680445E+01
1.76500000000E+08 +5.99284080213E-02 -2.05945112802E+01 +1.54114429108E-01 +1.06906420285E+02 +1.53740631859E-01 +1.06654398997E+02 +1.97668378968E-01 -7.66457070738E+01
1.76750000000E+08 +5.88094820901E-02 -2.42786300303E+01 +1.54066524450E-01 +1.05796679831E+02 +1.53671545681E-01 +1.05557700074E+02 +1.98108084643E-01 -7.80993680612E+01
1.77000000000E+08 +5.77361629829E-02 -2.80573213590E+01 +1.53930989924E-01 +1.04681242718E+02 +1.53515804733E-01 +1.04459662750E+02 +1.98396801320E-01 -7.95438034631E+01
1.77250000000E+08 +5.67189147889E-02 -3.17598702214E+01 +1.53692836662E-01 +1.03577269044E+02 +1.53281679571E-01 +1.03362991939E+02 +1.98627129005E-01 -8.09486754385E+01
1.77500000000E+08 +5.59165630834E-02 -3.54697708843E+01 +1.53434432515E-01 +1.02492686336E+02 +1.53006874357E-01 +1.02292842137E+02 +1.98771499030E-01 -8.23274926516E+01
1.77750000000E+08 +5.52516669719E-02 -3.92261752971E+01 +1.53170159007E-01 +1.01407823191E+02 +1.52734303924E-01 +1.01218981836E+02 +1.98985061762E-01 -8.36614813483E+01
1.78000000000E+08 +5.48153239965E-02 -4.28215710204E+01 +1.52852820979E-01 +1.00371646819E+02 +1.52425660819E-01 +1.00192688693E+02 +1.99266568420E-01 -8.49914548085E+01
1.78250000000E+08 +5.46453287212E-02 -4.65762386318E+01 +1.52612806712E-01 +9.93302085989E+01 +1.52195097444E-01 +9.91541843967E+01 +1.99448304387E-01 -8.63563609125E+01
1.78500000000E+08 +5.45312192740E-02 -5.04419052886E+01 +1.52298726994E-01 +9.82872119658E+01 +1.51871373138E-01 +9.81336756788E+01 +1.99557127885E-01 -8.76786803810E+01
