# Hz S MA R 50
! Planar, Obzor-304, 08125003, 3.51/02
! Дата: 26.03.2019 11:27:12
! Данные: Формат (Калибровка)
! Частота                  S11: Mag/Ang (F2)                     S21: Mag/Ang (F2)                     S12: Mag/Ang (F2)                     S22: Mag/Ang (F2)           
1.50000000000E+08 +5.81864533007E-01 +1.40693473283E+02 +7.09432782159E-02 +1.51327021778E+02 +7.10058273860E-02 +1.51623500739E+02 +6.03924967649E-01 +1.37115921637E+02
1.50250000000E+08 +5.78446319241E-01 +1.39822825220E+02 +7.11625831149E-02 +1.49569118432E+02 +7.13001393517E-02 +1.49846236628E+02 +5.98143771749E-01 +1.36061444724E+02
1.50500000000E+08 +5.75151330372E-01 +1.38915800731E+02 +7.13365824324E-02 +1.47905748872E+02 +7.14959878099E-02 +1.48158295763E+02 +5.92149802967E-01 +1.35003760005E+02
1.50750000000E+08 +5.71860244368E-01 +1.37977517510E+02 +7.15405056997E-02 +1.46321462653E+02 +7.17180598201E-02 +1.46574731446E+02 +5.86114871401E-01 +1.33947073920E+02
1.51000000000E+08 +5.68391510427E-01 +1.36992565091E+02 +7.18948411458E-02 +1.44780034106E+02 +7.21133878101E-02 +1.44964649624E+02 +5.79980180580E-01 +1.32886356050E+02
1.51250000000E+08 +5.64798181121E-01 +1.35979499490E+02 +7.22465877755E-02 +1.43244240109E+02 +7.24880265181E-02 +1.43398987013E+02 +5.73792195971E-01 +1.31819833363E+02
1.51500000000E+08 +5.61045294677E-01 +1.34934064470E+02 +7.26141433172E-02 +1.41730804144E+02 +7.28445180633E-02 +1.41828676933E+02 +5.67590521071E-01 +1.30759552192E+02
1.51750000000E+08 +5.57026708359E-01 +1.33858041421E+02 +7.30808476981E-02 +1.40284659610E+02 +7.33201135686E-02 +1.40365373737E+02 +5.61370361596E-01 +1.29690470581E+02
1.52000000000E+08 +5.52760352527E-01 +1.32759123195E+02 +7.37497889902E-02 +1.38809032256E+02 +7.39509338129E-02 +1.38848415707E+02 +5.55099676301E-01 +1.28616128218E+02
1.52250000000E+08 +5.48119022556E-01 +1.31641528727E+02 +7.44157800546E-02 +1.37237999473E+02 +7.45936263786E-02 +1.37247418882E+02 +5.48754902408E-01 +1.27545781534E+02
1.52500000000E+08 +5.43253197416E-01 +1.30521782415E+02 +7.51379485816E-02 +1.35657120852E+02 +7.52705363017E-02 +1.35659609208E+02 +5.42366333308E-01 +1.26470980681E+02
1.52750000000E+08 +5.38244089077E-01 +1.29384497605E+02 +7.58869772061E-02 +1.34014471606E+02 +7.59845505776E-02 +1.33990544644E+02 +5.35991403908E-01 +1.25392852832E+02
1.53000000000E+08 +5.32942203559E-01 +1.28230586988E+02 +7.66584793338E-02 +1.32311474255E+02 +7.67080275041E-02 +1.32286354736E+02 +5.29667603852E-01 +1.24316366883E+02
1.53250000000E+08 +5.27328772167E-01 +1.27072583062E+02 +7.73885690453E-02 +1.30555524974E+02 +7.74049512143E-02 +1.30528497891E+02 +5.23351434755E-01 +1.23253570610E+02
1.53500000000E+08 +5.21594249447E-01 +1.25916475246E+02 +7.80494022223E-02 +1.28798824960E+02 +7.80328394181E-02 +1.28791684948E+02 +5.17167227638E-01 +1.22176031103E+02
1.53750000000E+08 +5.15692642447E-01 +1.24751335697E+02 +7.87608613167E-02 +1.27067545940E+02 +7.87240890723E-02 +1.27061274379E+02 +5.11117098144E-01 +1.21093091346E+02
1.54000000000E+08 +5.09569947695E-01 +1.23577986704E+02 +7.94921776956E-02 +1.25304132345E+02 +7.94337363546E-02 +1.25309666749E+02 +5.05035858017E-01 +1.19993945453E+02
1.54250000000E+08 +5.03120466424E-01 +1.22408916951E+02 +8.01900066757E-02 +1.23488564908E+02 +8.01197528628E-02 +1.23513225051E+02 +4.99070329459E-01 +1.18888499373E+02
1.54500000000E+08 +4.96671888891E-01 +1.21260164706E+02 +8.09218025184E-02 +1.21694500290E+02 +8.08428721810E-02 +1.21750530968E+02 +4.93121204242E-01 +1.17770194182E+02
1.54750000000E+08 +4.90204712912E-01 +1.20108729848E+02 +8.16729114597E-02 +1.19876839658E+02 +8.15778857388E-02 +1.19936706574E+02 +4.87145911791E-01 +1.16632500904E+02
1.55000000000E+08 +4.83515413159E-01 +1.18952823914E+02 +8.24457606916E-02 +1.17989422414E+02 +8.23775950110E-02 +1.18069524908E+02 +4.81167030370E-01 +1.15469346586E+02
1.55250000000E+08 +4.76786321320E-01 +1.17823235940E+02 +8.31628532327E-02 +1.16070196527E+02 +8.30993943608E-02 +1.16141494701E+02 +4.75063846840E-01 +1.14303566177E+02
1.55500000000E+08 +4.70127221488E-01 +1.16705560678E+02 +8.38058264000E-02 +1.14131911458E+02 +8.37530457098E-02 +1.14217942040E+02 +4.68857821574E-01 +1.13126019542E+02
1.55750000000E+08 +4.63448801582E-01 +1.15578709630E+02 +8.45070058954E-02 +1.12200840811E+02 +8.44535236552E-02 +1.12290173773E+02 +4.62683446388E-01 +1.11947500727E+02
1.56000000000E+08 +4.56753108068E-01 +1.14445841032E+02 +8.51880490900E-02 +1.10249064672E+02 +8.51476602982E-02 +1.10309854607E+02 +4.56442690498E-01 +1.10766450432E+02
1.56250000000E+08 +4.50011122881E-01 +1.13326657978E+02 +8.58453784039E-02 +1.08204504315E+02 +8.57930894604E-02 +1.08267251998E+02 +4.50138153575E-01 +1.09562063590E+02
1.56500000000E+08 +4.43267501577E-01 +1.12208122772E+02 +8.63920892652E-02 +1.06166667693E+02 +8.63353219192E-02 +1.06211143142E+02 +4.43839900509E-01 +1.08367401605E+02
1.56750000000E+08 +4.36446661521E-01 +1.11098177534E+02 +8.69195815725E-02 +1.04135918952E+02 +8.68738125218E-02 +1.04197230526E+02 +4.37573251284E-01 +1.07154201328E+02
1.57000000000E+08 +4.29633851830E-01 +1.09995207850E+02 +8.74299463950E-02 +1.02057673650E+02 +8.73579438505E-02 +1.02094083564E+02 +4.31213145156E-01 +1.05923538468E+02
1.57250000000E+08 +4.22885113814E-01 +1.08901522915E+02 +8.78331643332E-02 +9.99557804493E+01 +8.77468881780E-02 +9.99834552743E+01 +4.24817981983E-01 +1.04696389682E+02
1.57500000000E+08 +4.16204268492E-01 +1.07808409442E+02 +8.81809050298E-02 +9.78505010624E+01 +8.80580041233E-02 +9.78796315468E+01 +4.18520537143E-01 +1.03456127298E+02
1.57750000000E+08 +4.09536481782E-01 +1.06701960107E+02 +8.84023253282E-02 +9.57022374542E+01 +8.82564136404E-02 +9.57411048645E+01 +4.12166753257E-01 +1.02190371821E+02
1.58000000000E+08 +4.02716360816E-01 +1.05609314894E+02 +8.84527642068E-02 +9.36397698206E+01 +8.82717437840E-02 +9.36752084837E+01 +4.05856511521E-01 +1.00914303639E+02
1.58250000000E+08 +3.95968632870E-01 +1.04533774017E+02 +8.84763159500E-02 +9.16907207126E+01 +8.82371973716E-02 +9.17275383453E+01 +3.99620641240E-01 +9.96063537544E+01
1.58500000000E+08 +3.89406304908E-01 +1.03458443502E+02 +8.86139107609E-02 +8.97999123587E+01 +8.83385099406E-02 +8.98527123118E+01 +3.93192387531E-01 +9.82678715135E+01
1.58750000000E+08 +3.82842361287E-01 +1.02368396700E+02 +8.88102938482E-02 +8.78688331659E+01 +8.85275157042E-02 +8.79294373201E+01 +3.86626337461E-01 +9.69199126271E+01
1.59000000000E+08 +3.76218403934E-01 +1.01293873421E+02 +8.89677480807E-02 +8.58563472479E+01 +8.86503918693E-02 +8.59435658015E+01 +3.79973161942E-01 +9.55697415564E+01
1.59250000000E+08 +3.69753385479E-01 +1.00208848333E+02 +8.89937994874E-02 +8.38732314088E+01 +8.86452018357E-02 +8.39841136046E+01 +3.73312747636E-01 +9.42043450029E+01
1.59500000000E+08 +3.63408669260E-01 +9.91154659120E+01 +8.89306357435E-02 +8.19371454929E+01 +8.85695735295E-02 +8.20848886029E+01 +3.66533739570E-01 +9.28423664743E+01
1.59750000000E+08 +3.57014354001E-01 +9.80079894302E+01 +8.89162083963E-02 +8.00679439476E+01 +8.85587390543E-02 +8.02561838652E+01 +3.59831410076E-01 +9.14840221452E+01
1.60000000000E+08 +3.50729993771E-01 +9.69158545300E+01 +8.88883437071E-02 +7.82200104791E+01 +8.85392494141E-02 +7.84323241630E+01 +3.53109475242E-01 +9.01183741045E+01
1.60250000000E+08 +3.44592655170E-01 +9.58107239068E+01 +8.89006272899E-02 +7.64051876114E+01 +8.85674850430E-02 +7.66376805483E+01 +3.46406768537E-01 +8.87329302501E+01
1.60500000000E+08 +3.38569314219E-01 +9.46798437648E+01 +8.90399005312E-02 +7.45737393473E+01 +8.87199217789E-02 +7.48591974827E+01 +3.39572945349E-01 +8.73516329275E+01
1.60750000000E+08 +3.32546338330E-01 +9.35369891296E+01 +8.91210319525E-02 +7.26690344212E+01 +8.88509298753E-02 +7.29753630610E+01 +3.32716043426E-01 +8.59847770592E+01
1.61000000000E+08 +3.26611526357E-01 +9.23699494585E+01 +8.90618232860E-02 +7.07657129720E+01 +8.88130141881E-02 +7.10647936451E+01 +3.25969946083E-01 +8.46395464577E+01
1.61250000000E+08 +3.20581943366E-01 +9.11795629426E+01 +8.89209417720E-02 +6.89388040072E+01 +8.87014207780E-02 +6.92629113556E+01 +3.19254518347E-01 +8.33093754166E+01
1.61500000000E+08 +3.14546593112E-01 +8.99990374957E+01 +8.88984023561E-02 +6.72083992582E+01 +8.87291197087E-02 +6.75468217555E+01 +3.12820479910E-01 +8.19781750789E+01
1.61750000000E+08 +3.08540061856E-01 +8.88123572813E+01 +8.90280593501E-02 +6.54549736208E+01 +8.88914320696E-02 +6.57837660520E+01 +3.06579633001E-01 +8.06205320744E+01
1.62000000000E+08 +3.02637637008E-01 +8.76679278569E+01 +8.91969204268E-02 +6.35710411352E+01 +8.90722111602E-02 +6.39145613707E+01 +3.00292808507E-01 +7.92137944366E+01
1.62250000000E+08 +2.96942087530E-01 +8.64865844086E+01 +8.92371420806E-02 +6.16915957614E+01 +8.91599007129E-02 +6.20300072475E+01 +2.93918617300E-01 +7.78023162496E+01
1.62500000000E+08 +2.91318667454E-01 +8.52728546583E+01 +8.92859518485E-02 +5.97962988292E+01 +8.92389105422E-02 +6.01356177887E+01 +2.87617263514E-01 +7.64095558001E+01
1.62750000000E+08 +2.85620736557E-01 +8.40677037441E+01 +8.92718487366E-02 +5.78479174469E+01 +8.92509251374E-02 +5.81805759188E+01 +2.81461151423E-01 +7.49932368396E+01
1.63000000000E+08 +2.80103333372E-01 +8.28510686349E+01 +8.91617827292E-02 +5.59179860328E+01 +8.91688284920E-02 +5.62456099574E+01 +2.75355819858E-01 +7.35271516302E+01
1.63250000000E+08 +2.74639765222E-01 +8.16183362749E+01 +8.90512228739E-02 +5.40061954443E+01 +8.90805836646E-02 +5.43115276720E+01 +2.69200593876E-01 +7.20576558026E+01
1.63500000000E+08 +2.69306269784E-01 +8.03480163621E+01 +8.89186462135E-02 +5.20396637550E+01 +8.89411938485E-02 +5.23227993202E+01 +2.63120534652E-01 +7.05870245250E+01
1.63750000000E+08 +2.63886376721E-01 +7.90294484181E+01 +8.86167305945E-02 +5.00573578180E+01 +8.86498614025E-02 +5.03486576540E+01 +2.57109042407E-01 +6.90838397555E+01
1.64000000000E+08 +2.58329005635E-01 +7.77034751737E+01 +8.81726121484E-02 +4.81646889243E+01 +8.82131447442E-02 +4.84497125903E+01 +2.51153595511E-01 +6.75963645033E+01
1.64250000000E+08 +2.52782491986E-01 +7.63623307773E+01 +8.77385149282E-02 +4.63381651965E+01 +8.77915183072E-02 +4.66261457123E+01 +2.45391416081E-01 +6.60688462903E+01
1.64500000000E+08 +2.47218586614E-01 +7.49890701065E+01 +8.73058565894E-02 +4.45635800055E+01 +8.73740799629E-02 +4.48361582017E+01 +2.39749385570E-01 +6.44966019277E+01
1.64750000000E+08 +2.41620359058E-01 +7.36220332376E+01 +8.69219620592E-02 +4.28225059929E+01 +8.69536387955E-02 +4.30905626833E+01 +2.33989976864E-01 +6.28864389863E+01
1.65000000000E+08 +2.36020743653E-01 +7.22277758820E+01 +8.65828028515E-02 +4.10951533590E+01 +8.66047344842E-02 +4.13656284869E+01 +2.28274437007E-01 +6.12634448172E+01
1.65250000000E+08 +2.30401900576E-01 +7.08226259321E+01 +8.62011524060E-02 +3.93193185145E+01 +8.62015997710E-02 +3.95945131518E+01 +2.22559955403E-01 +5.96562284167E+01
1.65500000000E+08 +2.24767235098E-01 +6.93802993692E+01 +8.56928024179E-02 +3.75814152904E+01 +8.57240522324E-02 +3.78486673677E+01 +2.17026038690E-01 +5.80184546629E+01
1.65750000000E+08 +2.19103943108E-01 +6.79168640809E+01 +8.51543245889E-02 +3.59291603827E+01 +8.51889336731E-02 +3.62111578881E+01 +2.11531078121E-01 +5.63730579052E+01
1.66000000000E+08 +2.13291109623E-01 +6.64583663085E+01 +8.46770547128E-02 +3.43898160956E+01 +8.47073364655E-02 +3.46756183793E+01 +2.06087174198E-01 +5.47151350393E+01
1.66250000000E+08 +2.07518169499E-01 +6.49981624027E+01 +8.43674345482E-02 +3.28972216978E+01 +8.43984853977E-02 +3.31774716760E+01 +2.00765363480E-01 +5.30610939440E+01
1.66500000000E+08 +2.01814155946E-01 +6.35473067347E+01 +8.41540120751E-02 +3.13400827126E+01 +8.42023712045E-02 +3.16259601359E+01 +1.95543612041E-01 +5.13721077583E+01
1.66750000000E+08 +1.96226546764E-01 +6.21038377218E+01 +8.40169293238E-02 +2.97292858108E+01 +8.40733344475E-02 +3.00234220936E+01 +1.90385680225E-01 +4.96918814214E+01
1.67000000000E+08 +1.90739469454E-01 +6.06051560447E+01 +8.37958133773E-02 +2.80484228123E+01 +8.38696722413E-02 +2.83475903946E+01 +1.85383455497E-01 +4.80196837351E+01
1.67250000000E+08 +1.85172209520E-01 +5.91138356459E+01 +8.34943743142E-02 +2.63530993499E+01 +8.35926788016E-02 +2.66426757355E+01 +1.80498268424E-01 +4.63130418346E+01
1.67500000000E+08 +1.79596633482E-01 +5.76296254973E+01 +8.31309361638E-02 +2.46589079225E+01 +8.32372533027E-02 +2.49555687985E+01 +1.75855453969E-01 +4.46122013473E+01
1.67750000000E+08 +1.74097035189E-01 +5.61645159987E+01 +8.27538120199E-02 +2.30515581123E+01 +8.28461799640E-02 +2.33312142469E+01 +1.71461903717E-01 +4.28813076820E+01
1.68000000000E+08 +1.68721311905E-01 +5.47772237814E+01 +8.23432041661E-02 +2.14319995144E+01 +8.24561003569E-02 +2.17279347889E+01 +1.67211766492E-01 +4.10397223298E+01
1.68250000000E+08 +1.63654001069E-01 +5.33952081586E+01 +8.19692491612E-02 +1.98724866204E+01 +8.21197428724E-02 +2.01572839384E+01 +1.63003105278E-01 +3.91355293132E+01
1.68500000000E+08 +1.58764348347E-01 +5.19650145545E+01 +8.16524142776E-02 +1.82767982252E+01 +8.18000887350E-02 +1.85334428956E+01 +1.58815152945E-01 +3.71703139603E+01
1.68750000000E+08 +1.53897756017E-01 +5.05250661080E+01 +8.12292484725E-02 +1.66593663936E+01 +8.13668409534E-02 +1.69126278997E+01 +1.54742695217E-01 +3.51958773442E+01
1.69000000000E+08 +1.49147546263E-01 +4.91106732677E+01 +8.07704741585E-02 +1.51012862264E+01 +8.08898743811E-02 +1.53419605038E+01 +1.50849605706E-01 +3.31405372963E+01
1.69250000000E+08 +1.44640354022E-01 +4.77009808525E+01 +8.02648093617E-02 +1.36249552055E+01 +8.03871368173E-02 +1.38653282698E+01 +1.46995982631E-01 +3.10258212067E+01
1.69500000000E+08 +1.40155465700E-01 +4.62558390569E+01 +7.98759448242E-02 +1.22071888816E+01 +8.00156957396E-02 +1.24594943754E+01 +1.43209578629E-01 +2.88259954257E+01
1.69750000000E+08 +1.35900360635E-01 +4.48449955945E+01 +7.96467417875E-02 +1.07761194207E+01 +7.97653513783E-02 +1.10208217838E+01 +1.39490588642E-01 +2.66219389571E+01
1.70000000000E+08 +1.31882803059E-01 +4.33834268762E+01 +7.94065375470E-02 +9.26197912916E+00 +7.95246125966E-02 +9.49492942973E+00 +1.35989067540E-01 +2.43674593173E+01
1.70250000000E+08 +1.27988578184E-01 +4.18483031792E+01 +7.90486750804E-02 +7.74271333797E+00 +7.91592130719E-02 +7.97077128316E+00 +1.32598862607E-01 +2.20369236451E+01
1.70500000000E+08 +1.24186947059E-01 +4.02374034908E+01 +7.87594692531E-02 +6.29573901351E+00 +7.88583953356E-02 +6.52734925613E+00 +1.29408339961E-01 +1.96674915729E+01
1.70750000000E+08 +1.20411742087E-01 +3.85524773410E+01 +7.85179232219E-02 +4.78323935276E+00 +7.86040093878E-02 +5.01794302294E+00 +1.26333981974E-01 +1.71929514691E+01
1.71000000000E+08 +1.16708777361E-01 +3.68041619834E+01 +7.82118573446E-02 +3.22982194840E+00 +7.83054394817E-02 +3.48416001362E+00 +1.23357733375E-01 +1.46572495617E+01
1.71250000000E+08 +1.13073502888E-01 +3.49940808880E+01 +7.78253976907E-02 +1.70583930011E+00 +7.79245583048E-02 +1.95311331980E+00 +1.20432055323E-01 +1.20665799921E+01
1.71500000000E+08 +1.09409582749E-01 +3.31398679708E+01 +7.73854713478E-02 +1.89485455351E-01 +7.74813595434E-02 +4.37236865907E-01 +1.17576507694E-01 +9.45893597710E+00
1.71750000000E+08 +1.05907817278E-01 +3.12398772121E+01 +7.69140507760E-02 -1.19552725062E+00 +7.70093469999E-02 -9.45185043490E-01 +1.14954647606E-01 +6.83115445139E+00
1.72000000000E+08 +1.02526449249E-01 +2.92655078538E+01 +7.65076476937E-02 -2.51747321901E+00 +7.66028576912E-02 -2.26435416472E+00 +1.12631686930E-01 +4.12617734807E+00
1.72250000000E+08 +9.92266223317E-02 +2.71681203657E+01 +7.62598910704E-02 -3.79497631361E+00 +7.63582564418E-02 -3.52120355808E+00 +1.10368803174E-01 +1.24951911982E+00
1.72500000000E+08 +9.59120488312E-02 +2.50171606845E+01 +7.61418609225E-02 -5.15101983193E+00 +7.62678572986E-02 -4.89235223401E+00 +1.08082245808E-01 -1.68185370022E+00
1.72750000000E+08 +9.28016961291E-02 +2.29027936159E+01 +7.60130983710E-02 -6.56458342918E+00 +7.61376113426E-02 -6.31012929544E+00 +1.05839025998E-01 -4.65844042071E+00
1.73000000000E+08 +8.99135426721E-02 +2.05399826533E+01 +7.58814165314E-02 -8.06717066491E+00 +7.60016864605E-02 -7.81491536986E+00 +1.03555301724E-01 -7.66976758990E+00
1.73250000000E+08 +8.69807365684E-02 +1.80756583594E+01 +7.56155706181E-02 -9.55092515950E+00 +7.57173795655E-02 -9.27987980412E+00 +1.01385244996E-01 -1.06382391563E+01
1.73500000000E+08 +8.40670123316E-02 +1.55553744399E+01 +7.53366911560E-02 -1.10268087125E+01 +7.54267014116E-02 -1.07878618390E+01 +9.94656947071E-02 -1.35787297462E+01
1.73750000000E+08 +8.12547621215E-02 +1.30112825462E+01 +7.50671150864E-02 -1.24660134958E+01 +7.51769274143E-02 -1.21996437996E+01 +9.77574334317E-02 -1.66084693586E+01
1.74000000000E+08 +7.86488710204E-02 +1.04522247831E+01 +7.47431974800E-02 -1.39085691257E+01 +7.48362572212E-02 -1.36213722203E+01 +9.61617150256E-02 -1.97199815533E+01
1.74250000000E+08 +7.62987111517E-02 +7.77436571230E+00 +7.44872805173E-02 -1.52704517737E+01 +7.46018376855E-02 -1.49815939148E+01 +9.46586460605E-02 -2.28529871037E+01
1.74500000000E+08 +7.40628728008E-02 +4.93430798012E+00 +7.43589834250E-02 -1.66437911051E+01 +7.44934620489E-02 -1.63465609867E+01 +9.32641406498E-02 -2.59755082122E+01
1.74750000000E+08 +7.19282061966E-02 +1.94960994096E+00 +7.42309646996E-02 -1.81502401741E+01 +7.43718942578E-02 -1.78506373172E+01 +9.19284382258E-02 -2.91452052474E+01
1.75000000000E+08 +6.97873073042E-02 -1.23722236149E+00 +7.40300985106E-02 -1.97067315409E+01 +7.41396256983E-02 -1.94098688368E+01 +9.06739961966E-02 -3.22002351783E+01
1.75250000000E+08 +6.76720963272E-02 -4.34685496923E+00 +7.36925064187E-02 -2.11904882751E+01 +7.38049485592E-02 -2.09085214299E+01 +8.97239873636E-02 -3.51184873693E+01
1.75500000000E+08 +6.56971617590E-02 -7.46866184771E+00 +7.33937183404E-02 -2.26782065683E+01 +7.35243511246E-02 -2.23740360321E+01 +8.91761591355E-02 -3.80313044794E+01
1.75750000000E+08 +6.39814853988E-02 -1.06598887378E+01 +7.31132070706E-02 -2.41407921220E+01 +7.32569497962E-02 -2.38345170054E+01 +8.89845929805E-02 -4.10244696513E+01
1.76000000000E+08 +6.24217417806E-02 -1.39698471502E+01 +7.28497523985E-02 -2.56289250895E+01 +7.29995451005E-02 -2.53023119643E+01 +8.88476704011E-02 -4.42133953532E+01
1.76250000000E+08 +6.09383217485E-02 -1.73546993794E+01 +7.25419129835E-02 -2.71582597378E+01 +7.26958369083E-02 -2.68549777037E+01 +8.86365721412E-02 -4.73535260502E+01
1.76500000000E+08 +5.96954031688E-02 -2.08351088969E+01 +7.21115721193E-02 -2.87294141735E+01 +7.22770923703E-02 -2.84204187350E+01 +8.84965991444E-02 -5.04373078273E+01
1.76750000000E+08 +5.85428294792E-02 -2.44532451507E+01 +7.15854044256E-02 -3.01974212195E+01 +7.17685112814E-02 -2.98981514718E+01 +8.83481048637E-02 -5.34818286009E+01
1.77000000000E+08 +5.74820861918E-02 -2.81845688129E+01 +7.11048036650E-02 -3.15530016229E+01 +7.13122386948E-02 -3.12556182618E+01 +8.83172393242E-02 -5.63352265742E+01
1.77250000000E+08 +5.64518370197E-02 -3.18673411616E+01 +7.07134742830E-02 -3.29224190906E+01 +7.08908003773E-02 -3.26372035849E+01 +8.84640621276E-02 -5.92054015923E+01
1.77500000000E+08 +5.56690840087E-02 -3.55346130133E+01 +7.03517376488E-02 -3.43518117464E+01 +7.05385926760E-02 -3.40522475930E+01 +8.86554693932E-02 -6.20408447090E+01
1.77750000000E+08 +5.50323584249E-02 -3.92799153409E+01 +6.98353329953E-02 -3.58048838410E+01 +7.00189924777E-02 -3.55177679600E+01 +8.88244343107E-02 -6.47632488872E+01
1.78000000000E+08 +5.45873249341E-02 -4.28831063278E+01 +6.92300537519E-02 -3.71335178386E+01 +6.94354116401E-02 -3.68217395096E+01 +8.91061232899E-02 -6.74626897741E+01
1.78250000000E+08 +5.44221352926E-02 -4.66084391705E+01 +6.87216994044E-02 -3.83978283503E+01 +6.89203180263E-02 -3.80979626660E+01 +8.93756488425E-02 -7.00741435360E+01
1.78500000000E+08 +5.43808838983E-02 -5.04658408900E+01 +6.82695124727E-02 -3.95988735562E+01 +6.84048998770E-02 -3.93052895512E+01 +8.97051000847E-02 -7.25956115287E+01
