# Hz S MA R 50
! Planar, Obzor-304, 08125003, 3.51/02
! Дата: 26.03.2019 11:30:05
! Данные: Формат (Калибровка)
! Частота                  S11: Mag/Ang (F2)                     S21: Mag/Ang (F2)                     S12: Mag/Ang (F2)                     S22: Mag/Ang (F2)           
1.50000000000E+08 +6.03904128225E-01 +1.37463836333E+02 +1.46527001528E-01 -6.40099415794E+01 +1.46971143707E-01 -6.36624426682E+01 +5.33150594450E-01 +1.18913632664E+02
1.50250000000E+08 +5.98368221487E-01 +1.36415914849E+02 +1.46974118728E-01 -6.55012634099E+01 +1.47481217200E-01 -6.51650044113E+01 +5.27258621606E-01 +1.17596939077E+02
1.50500000000E+08 +5.92570223727E-01 +1.35361817684E+02 +1.47517498335E-01 -6.69599066143E+01 +1.48119838236E-01 -6.66601288432E+01 +5.21418813438E-01 +1.16282237270E+02
1.50750000000E+08 +5.86742214538E-01 +1.34315122769E+02 +1.48116695513E-01 -6.84586565039E+01 +1.48776630475E-01 -6.81823341466E+01 +5.15566136651E-01 +1.14938762909E+02
1.51000000000E+08 +5.81047008854E-01 +1.33266592223E+02 +1.48634243883E-01 -6.99644488779E+01 +1.49302164468E-01 -6.97274430940E+01 +5.09668083365E-01 +1.13582697935E+02
1.51250000000E+08 +5.75229714442E-01 +1.32201463944E+02 +1.49200449037E-01 -7.14556593714E+01 +1.49870246052E-01 -7.12584456374E+01 +5.03653365333E-01 +1.12216802704E+02
1.51500000000E+08 +5.69347947427E-01 +1.31139108859E+02 +1.49806281905E-01 -7.29394692242E+01 +1.50469696542E-01 -7.27764724957E+01 +4.97653626741E-01 +1.10856799900E+02
1.51750000000E+08 +5.63468079714E-01 +1.30077196349E+02 +1.50447310854E-01 -7.44784528573E+01 +1.51085432160E-01 -7.43402960622E+01 +4.91718894256E-01 +1.09475227543E+02
1.52000000000E+08 +5.57566148101E-01 +1.29009481596E+02 +1.50948636733E-01 -7.60180170571E+01 +1.51577455603E-01 -7.59186634038E+01 +4.85861912075E-01 +1.08074653455E+02
1.52250000000E+08 +5.51770975582E-01 +1.27933210946E+02 +1.51488004077E-01 -7.75250711468E+01 +1.52041187686E-01 -7.74376971933E+01 +4.79909917300E-01 +1.06664543843E+02
1.52500000000E+08 +5.45967568469E-01 +1.26836055722E+02 +1.52067375556E-01 -7.90761409796E+01 +1.52549505589E-01 -7.89933855367E+01 +4.73975686348E-01 +1.05230444161E+02
1.52750000000E+08 +5.39960295685E-01 +1.25721823425E+02 +1.52575864340E-01 -8.06323350513E+01 +1.53003331472E-01 -8.05634457286E+01 +4.67969632558E-01 +1.03774834426E+02
1.53000000000E+08 +5.33929652450E-01 +1.24603603369E+02 +1.53055477659E-01 -8.21830372197E+01 +1.53411164688E-01 -8.21276793583E+01 +4.62079967986E-01 +1.02315557678E+02
1.53250000000E+08 +5.27820546602E-01 +1.23477660653E+02 +1.53538477369E-01 -8.37438525009E+01 +1.53831069720E-01 -8.36679952990E+01 +4.56202345725E-01 +1.00851033611E+02
1.53500000000E+08 +5.21658980071E-01 +1.22339550728E+02 +1.54052694184E-01 -8.53105159611E+01 +1.54312455841E-01 -8.52270663519E+01 +4.50392997455E-01 +9.93540378060E+01
1.53750000000E+08 +5.15383820874E-01 +1.21184413306E+02 +1.54459086448E-01 -8.69199940731E+01 +1.54695524983E-01 -8.68296817840E+01 +4.44670698347E-01 +9.78462412947E+01
1.54000000000E+08 +5.08998423549E-01 +1.20041291079E+02 +1.54771907264E-01 -8.85104364348E+01 +1.54986597114E-01 -8.83983336207E+01 +4.38874637642E-01 +9.63116002691E+01
1.54250000000E+08 +5.02631282423E-01 +1.18891394321E+02 +1.55091177136E-01 -9.00920509448E+01 +1.55318779727E-01 -8.99742380610E+01 +4.33089476742E-01 +9.47657976317E+01
1.54500000000E+08 +4.96274276614E-01 +1.17735715437E+02 +1.55390446432E-01 -9.16926865454E+01 +1.55632234439E-01 -9.15570611087E+01 +4.27454960955E-01 +9.32122734541E+01
1.54750000000E+08 +4.90023511430E-01 +1.16566834640E+02 +1.55664507905E-01 -9.33064249882E+01 +1.55893624176E-01 -9.31652055532E+01 +4.21879334744E-01 +9.16256945549E+01
1.55000000000E+08 +4.83751446783E-01 +1.15389974046E+02 +1.55798070695E-01 -9.49167246438E+01 +1.56050567368E-01 -9.47621366416E+01 +4.16305773893E-01 +8.99877602000E+01
1.55250000000E+08 +4.77504089368E-01 +1.14194565603E+02 +1.55942728011E-01 -9.65066862900E+01 +1.56245770902E-01 -9.63645287956E+01 +4.10580539825E-01 +8.83396001235E+01
1.55500000000E+08 +4.71035198762E-01 +1.12973301626E+02 +1.56018630780E-01 -9.81093202928E+01 +1.56355552079E-01 -9.79701380411E+01 +4.04769229843E-01 +8.66767753344E+01
1.55750000000E+08 +4.64527187572E-01 +1.11753195403E+02 +1.56010628917E-01 -9.97129869974E+01 +1.56362384325E-01 -9.95832010729E+01 +3.99002603726E-01 +8.50026878066E+01
1.56000000000E+08 +4.58001414423E-01 +1.10525620560E+02 +1.55902753728E-01 -1.01302553765E+02 +1.56264855889E-01 -1.01180858794E+02 +3.93191398556E-01 +8.33106163617E+01
1.56250000000E+08 +4.51382299714E-01 +1.09288999370E+02 +1.55748889891E-01 -1.02842564975E+02 +1.56115884344E-01 -1.02739656491E+02 +3.87358357979E-01 +8.16038641389E+01
1.56500000000E+08 +4.44674153369E-01 +1.08056437856E+02 +1.55608406834E-01 -1.04362584417E+02 +1.55991427534E-01 -1.04269816043E+02 +3.81671170189E-01 +7.98796018406E+01
1.56750000000E+08 +4.38014251096E-01 +1.06811845986E+02 +1.55491535591E-01 -1.05879564521E+02 +1.55839133880E-01 -1.05794142995E+02 +3.75931488216E-01 +7.81326093775E+01
1.57000000000E+08 +4.31230702354E-01 +1.05546021108E+02 +1.55324361639E-01 -1.07373592101E+02 +1.55662624999E-01 -1.07302699834E+02 +3.70103737916E-01 +7.63452575863E+01
1.57250000000E+08 +4.24234518814E-01 +1.04280592996E+02 +1.55182060647E-01 -1.08851373407E+02 +1.55465974733E-01 -1.08786881002E+02 +3.64216677475E-01 +7.45589824792E+01
1.57500000000E+08 +4.17215838332E-01 +1.03043527406E+02 +1.55068944057E-01 -1.10324153271E+02 +1.55300845280E-01 -1.10267664413E+02 +3.58379882563E-01 +7.27712732136E+01
1.57750000000E+08 +4.10258281840E-01 +1.01807795675E+02 +1.54957628700E-01 -1.11768361368E+02 +1.55127410016E-01 -1.11714605234E+02 +3.52711530725E-01 +7.09460720973E+01
1.58000000000E+08 +4.03241716029E-01 +1.00567755613E+02 +1.54921002216E-01 -1.13209763874E+02 +1.55058353700E-01 -1.13150664697E+02 +3.46967398907E-01 +6.91076791905E+01
1.58250000000E+08 +3.96227484970E-01 +9.93329261311E+01 +1.55002906797E-01 -1.14692155010E+02 +1.55055223684E-01 -1.14622545283E+02 +3.41367286958E-01 +6.72660375140E+01
1.58500000000E+08 +3.89282873379E-01 +9.81147798580E+01 +1.54898455232E-01 -1.16196930660E+02 +1.54942064798E-01 -1.16120959659E+02 +3.35920404087E-01 +6.53932601043E+01
1.58750000000E+08 +3.82452429494E-01 +9.68896994240E+01 +1.54766788213E-01 -1.17694020771E+02 +1.54773877644E-01 -1.17606800516E+02 +3.30502108670E-01 +6.34836930440E+01
1.59000000000E+08 +3.75655849297E-01 +9.56590773681E+01 +1.54626658527E-01 -1.19156228835E+02 +1.54589200127E-01 -1.19043915109E+02 +3.25053801510E-01 +6.15529680310E+01
1.59250000000E+08 +3.68918759372E-01 +9.44138736933E+01 +1.54526155874E-01 -1.20617588537E+02 +1.54486337198E-01 -1.20472177465E+02 +3.19689289298E-01 +5.96090623033E+01
1.59500000000E+08 +3.62249132369E-01 +9.31950656826E+01 +1.54512941773E-01 -1.22070034685E+02 +1.54468964340E-01 -1.21912150120E+02 +3.14358462468E-01 +5.76533620457E+01
1.59750000000E+08 +3.55835640151E-01 +9.19576125468E+01 +1.54527520293E-01 -1.23588746399E+02 +1.54513732824E-01 -1.23402320745E+02 +3.09125254845E-01 +5.56638486256E+01
1.60000000000E+08 +3.49653987041E-01 +9.06837311189E+01 +1.54467672317E-01 -1.25130060322E+02 +1.54452717144E-01 -1.24925704967E+02 +3.03898672080E-01 +5.36868203188E+01
1.60250000000E+08 +3.43483434834E-01 +8.93730730711E+01 +1.54246086652E-01 -1.26718527458E+02 +1.54261092613E-01 -1.26504792129E+02 +2.98826591164E-01 +5.17009724128E+01
1.60500000000E+08 +3.37221930452E-01 +8.80218892361E+01 +1.53803201590E-01 -1.28276356486E+02 +1.53855109935E-01 -1.28037425806E+02 +2.93895223380E-01 +4.96955040409E+01
1.60750000000E+08 +3.30790066326E-01 +8.66621730406E+01 +1.53321299182E-01 -1.29737494058E+02 +1.53438359268E-01 -1.29492983578E+02 +2.89093590525E-01 +4.76834416185E+01
1.61000000000E+08 +3.24444567643E-01 +8.53185741269E+01 +1.53005579468E-01 -1.31184122449E+02 +1.53173948587E-01 -1.30933399041E+02 +2.84371525122E-01 +4.56395407519E+01
1.61250000000E+08 +3.18275500721E-01 +8.39816511844E+01 +1.52669239851E-01 -1.32676515003E+02 +1.52927310307E-01 -1.32425502011E+02 +2.79709192763E-01 +4.35851903324E+01
1.61500000000E+08 +3.12363977809E-01 +8.26168912241E+01 +1.52296310310E-01 -1.34177798669E+02 +1.52589510230E-01 -1.33933143269E+02 +2.75171691895E-01 +4.15224988060E+01
1.61750000000E+08 +3.06445802040E-01 +8.11781064638E+01 +1.51767182759E-01 -1.35689896722E+02 +1.52107838860E-01 -1.35453190671E+02 +2.70612624665E-01 +3.94343775665E+01
1.62000000000E+08 +3.00449797106E-01 +7.97320090013E+01 +1.51167626256E-01 -1.37147112908E+02 +1.51558683191E-01 -1.36917080717E+02 +2.66178707996E-01 +3.73812262355E+01
1.62250000000E+08 +2.94350692676E-01 +7.82618780157E+01 +1.50571068293E-01 -1.38573389395E+02 +1.50972405634E-01 -1.38352256710E+02 +2.61983712176E-01 +3.53197465336E+01
1.62500000000E+08 +2.88279770142E-01 +7.67896090669E+01 +1.49945677578E-01 -1.39985524854E+02 +1.50386749101E-01 -1.39775277943E+02 +2.58005759005E-01 +3.32079906769E+01
1.62750000000E+08 +2.82193879573E-01 +7.53014754251E+01 +1.49413062897E-01 -1.41365749851E+02 +1.49847460495E-01 -1.41169890765E+02 +2.54055216247E-01 +3.10867547107E+01
1.63000000000E+08 +2.76162423947E-01 +7.38105539331E+01 +1.48814461412E-01 -1.42748511106E+02 +1.49262123453E-01 -1.42572057803E+02 +2.50211726823E-01 +2.89626653419E+01
1.63250000000E+08 +2.70070775517E-01 +7.22934308382E+01 +1.48158008202E-01 -1.44123854264E+02 +1.48646698846E-01 -1.43952282116E+02 +2.46584218202E-01 +2.68264066914E+01
1.63500000000E+08 +2.63956788692E-01 +7.07785439571E+01 +1.47507944038E-01 -1.45410769472E+02 +1.47957168220E-01 -1.45269955009E+02 +2.43116473937E-01 +2.46604754216E+01
1.63750000000E+08 +2.57756577290E-01 +6.92542488667E+01 +1.46968371196E-01 -1.46676415692E+02 +1.47423368765E-01 -1.46533070379E+02 +2.39740212208E-01 +2.24701605807E+01
1.64000000000E+08 +2.51608997774E-01 +6.77804533585E+01 +1.46609783439E-01 -1.47947439029E+02 +1.47070752796E-01 -1.47812554228E+02 +2.36513008740E-01 +2.02685260329E+01
1.64250000000E+08 +2.45723236970E-01 +6.62993252199E+01 +1.46299093437E-01 -1.49247047443E+02 +1.46720788605E-01 -1.49113207800E+02 +2.33334338824E-01 +1.80499469905E+01
1.64500000000E+08 +2.40017641561E-01 +6.47910032425E+01 +1.46041486893E-01 -1.50580687467E+02 +1.46434923935E-01 -1.50443653539E+02 +2.30246811181E-01 +1.58329306041E+01
1.64750000000E+08 +2.34434443559E-01 +6.32547669703E+01 +1.45739247661E-01 -1.51952268406E+02 +1.46130266339E-01 -1.51820110974E+02 +2.27264567155E-01 +1.36116408662E+01
1.65000000000E+08 +2.28855923774E-01 +6.16707146862E+01 +1.45258183448E-01 -1.53335403294E+02 +1.45658711179E-01 -1.53193513794E+02 +2.24451970330E-01 +1.14265268873E+01
1.65250000000E+08 +2.23317615237E-01 +6.00798947065E+01 +1.44789915713E-01 -1.54650802599E+02 +1.45171272743E-01 -1.54534316494E+02 +2.21872510820E-01 +9.23698833755E+00
1.65500000000E+08 +2.17883005892E-01 +5.84565036736E+01 +1.44362021221E-01 -1.55985434420E+02 +1.44744088119E-01 -1.55855688869E+02 +2.19490398915E-01 +7.02495662054E+00
1.65750000000E+08 +2.12535685733E-01 +5.68115862977E+01 +1.43932733501E-01 -1.57328675010E+02 +1.44335184705E-01 -1.57198772673E+02 +2.17159037851E-01 +4.79836920321E+00
1.66000000000E+08 +2.07319395696E-01 +5.51461128173E+01 +1.43558530185E-01 -1.58675825349E+02 +1.43930013168E-01 -1.58548530300E+02 +2.14871556232E-01 +2.60026463204E+00
1.66250000000E+08 +2.02320616809E-01 +5.34292189185E+01 +1.43113667253E-01 -1.60052845231E+02 +1.43499541783E-01 -1.59932934370E+02 +2.12791282823E-01 +4.33827302591E-01
1.66500000000E+08 +1.97423242565E-01 +5.16296182690E+01 +1.42530260246E-01 -1.61426688397E+02 +1.42914123756E-01 -1.61304451109E+02 +2.10861829615E-01 -1.72649648677E+00
1.66750000000E+08 +1.92548065660E-01 +4.97440234296E+01 +1.41843456378E-01 -1.62767747747E+02 +1.42239131628E-01 -1.62648748466E+02 +2.09020518749E-01 -3.86533553753E+00
1.67000000000E+08 +1.87518240063E-01 +4.78181883033E+01 +1.41157148296E-01 -1.64039483460E+02 +1.41544237815E-01 -1.63935674352E+02 +2.07485174820E-01 -5.98038333114E+00
1.67250000000E+08 +1.82435489607E-01 +4.58757625407E+01 +1.40547193348E-01 -1.65286296342E+02 +1.40966549998E-01 -1.65179843390E+02 +2.06107004196E-01 -8.12747989325E+00
1.67500000000E+08 +1.77461197054E-01 +4.39606282889E+01 +1.40071154809E-01 -1.66514036256E+02 +1.40454454371E-01 -1.66408958621E+02 +2.04821639133E-01 -1.02720629074E+01
1.67750000000E+08 +1.72705837799E-01 +4.20120993257E+01 +1.39663493306E-01 -1.67763948699E+02 +1.40047778706E-01 -1.67673869961E+02 +2.03629393347E-01 -1.24267360179E+01
1.68000000000E+08 +1.68019224678E-01 +4.00003409717E+01 +1.39200050289E-01 -1.69064227148E+02 +1.39535004493E-01 -1.68970076734E+02 +2.02461083760E-01 -1.45649927434E+01
1.68250000000E+08 +1.63380534316E-01 +3.79718643246E+01 +1.38614757724E-01 -1.70334150186E+02 +1.38970609849E-01 -1.70248969370E+02 +2.01321073226E-01 -1.66978257823E+01
1.68500000000E+08 +1.58818062943E-01 +3.59134126406E+01 +1.38051968459E-01 -1.71551825406E+02 +1.38383464061E-01 -1.71467373697E+02 +2.00288522171E-01 -1.87711426059E+01
1.68750000000E+08 +1.54372623650E-01 +3.38250043337E+01 +1.37627355743E-01 -1.72749083800E+02 +1.37959620926E-01 -1.72661277922E+02 +1.99560296036E-01 -2.08492209190E+01
1.69000000000E+08 +1.49995743708E-01 +3.17203434783E+01 +1.37296752124E-01 -1.73981604365E+02 +1.37605490381E-01 -1.73906074531E+02 +1.98995729367E-01 -2.29545375541E+01
1.69250000000E+08 +1.45703683718E-01 +2.96197805977E+01 +1.37006212733E-01 -1.75254012219E+02 +1.37286354901E-01 -1.75163320845E+02 +1.98395327991E-01 -2.50570282031E+01
1.69500000000E+08 +1.41646942304E-01 +2.74861832059E+01 +1.36615134757E-01 -1.76574045248E+02 +1.36884724704E-01 -1.76478217585E+02 +1.97766729106E-01 -2.71708313387E+01
1.69750000000E+08 +1.37807436777E-01 +2.53335164045E+01 +1.36091647893E-01 -1.77865147525E+02 +1.36382502830E-01 -1.77776321655E+02 +1.97210231423E-01 -2.92149722366E+01
1.70000000000E+08 +1.34161094701E-01 +2.30553362881E+01 +1.35567431825E-01 -1.79125277539E+02 +1.35844320592E-01 -1.79030226559E+02 +1.96781560965E-01 -3.12417656916E+01
1.70250000000E+08 +1.30477218587E-01 +2.06677503827E+01 +1.35104357821E-01 +1.79629466631E+02 +1.35374688715E-01 +1.79727328773E+02 +1.96475415115E-01 -3.32671969780E+01
1.70500000000E+08 +1.26799687026E-01 +1.82960631042E+01 +1.34593255013E-01 +1.78383650828E+02 +1.34881447326E-01 +1.78483899454E+02 +1.96246633986E-01 -3.52744345831E+01
1.70750000000E+08 +1.23375779557E-01 +1.58945055292E+01 +1.34153716886E-01 +1.77163717416E+02 +1.34433710248E-01 +1.77265784062E+02 +1.95998849900E-01 -3.72749579639E+01
1.71000000000E+08 +1.20090958878E-01 +1.33836780190E+01 +1.33776821030E-01 +1.75930053465E+02 +1.34089362502E-01 +1.76037191398E+02 +1.95843207745E-01 -3.92345536179E+01
1.71250000000E+08 +1.16855766123E-01 +1.07894795112E+01 +1.33407990866E-01 +1.74667847070E+02 +1.33692563335E-01 +1.74764909320E+02 +1.95705932465E-01 -4.11693221518E+01
1.71500000000E+08 +1.13643199197E-01 +8.21035776942E+00 +1.32996667022E-01 +1.73414721821E+02 +1.33303953562E-01 +1.73516039524E+02 +1.95528135927E-01 -4.30838864776E+01
1.71750000000E+08 +1.10728345525E-01 +5.64880845376E+00 +1.32673731434E-01 +1.72131165186E+02 +1.33018272785E-01 +1.72229151903E+02 +1.95540001584E-01 -4.49614738912E+01
1.72000000000E+08 +1.08206833825E-01 +2.95478794641E+00 +1.32356085792E-01 +1.70802634207E+02 +1.32679832826E-01 +1.70898691220E+02 +1.95564700553E-01 -4.68213265846E+01
1.72250000000E+08 +1.05777872767E-01 +1.39678648698E-01 +1.31824796309E-01 +1.69419371720E+02 +1.32178022026E-01 +1.69521711839E+02 +1.95517998598E-01 -4.86770766717E+01
1.72500000000E+08 +1.03470772494E-01 -2.73677440150E+00 +1.31213615342E-01 +1.68084781371E+02 +1.31559311715E-01 +1.68177969119E+02 +1.95406811340E-01 -5.04601866952E+01
1.72750000000E+08 +1.01374551439E-01 -5.68921389962E+00 +1.30595228368E-01 +1.66781011920E+02 +1.30937073239E-01 +1.66861634601E+02 +1.95483145582E-01 -5.22033139627E+01
1.73000000000E+08 +9.93721242934E-02 -8.74651760020E+00 +1.29896675573E-01 +1.65478846488E+02 +1.30244531617E-01 +1.65553359272E+02 +1.95569531522E-01 -5.39671779563E+01
1.73250000000E+08 +9.74235364919E-02 -1.18285759971E+01 +1.29216373866E-01 +1.64193645063E+02 +1.29538424436E-01 +1.64261267489E+02 +1.95595456035E-01 -5.56619314053E+01
1.73500000000E+08 +9.57381316357E-02 -1.48578856982E+01 +1.28541999431E-01 +1.62948828612E+02 +1.28851559117E-01 +1.63017918111E+02 +1.95683932528E-01 -5.73021526737E+01
1.73750000000E+08 +9.43084642109E-02 -1.79707412818E+01 +1.27874089861E-01 +1.61685549702E+02 +1.28173858963E-01 +1.61734545627E+02 +1.95944177668E-01 -5.89280991393E+01
1.74000000000E+08 +9.29940527940E-02 -2.11840162104E+01 +1.27164483762E-01 +1.60403866553E+02 +1.27444695377E-01 +1.60455275003E+02 +1.96305910113E-01 -6.05501582594E+01
1.74250000000E+08 +9.16830726069E-02 -2.44045026079E+01 +1.26318069330E-01 +1.59141592341E+02 +1.26601672220E-01 +1.59187568570E+02 +1.96738134227E-01 -6.21890151795E+01
1.74500000000E+08 +9.05489247488E-02 -2.75915405974E+01 +1.25421920149E-01 +1.57951180995E+02 +1.25633228867E-01 +1.57988391443E+02 +1.97022324069E-01 -6.38252630030E+01
1.74750000000E+08 +8.96524257517E-02 -3.08268240858E+01 +1.24653685340E-01 +1.56800141542E+02 +1.24939831109E-01 +1.56883003979E+02 +1.97397404945E-01 -6.54139114398E+01
1.75000000000E+08 +8.87315004823E-02 -3.40428829476E+01 +1.23964249047E-01 +1.55697846961E+02 +1.24212047173E-01 +1.55769757477E+02 +1.97680363533E-01 -6.69983237775E+01
1.75250000000E+08 +8.79950436771E-02 -3.72178556840E+01 +1.23367231745E-01 +1.54541153069E+02 +1.23568273487E-01 +1.54592067693E+02 +1.98055842684E-01 -6.85475353292E+01
1.75500000000E+08 +8.72561495879E-02 -4.03576461957E+01 +1.22680737550E-01 +1.53369589719E+02 +1.22869004812E-01 +1.53419559573E+02 +1.98486141311E-01 -7.01069267647E+01
1.75750000000E+08 +8.67306678577E-02 -4.33829685704E+01 +1.21968842357E-01 +1.52223279223E+02 +1.22135059196E-01 +1.52298403094E+02 +1.98845337026E-01 -7.16513590080E+01
1.76000000000E+08 +8.63540456041E-02 -4.64143950726E+01 +1.21265319878E-01 +1.51101251803E+02 +1.21434416936E-01 +1.51173147962E+02 +1.99206305340E-01 -7.31508555464E+01
1.76250000000E+08 +8.60858561279E-02 -4.94386892130E+01 +1.20605505793E-01 +1.49995803346E+02 +1.20777495396E-01 +1.50073483221E+02 +1.99688935775E-01 -7.46485544933E+01
1.76500000000E+08 +8.60216575792E-02 -5.24049070345E+01 +1.20005903999E-01 +1.48910932070E+02 +1.20165111268E-01 +1.49007723050E+02 +2.00134309352E-01 -7.61405713084E+01
1.76750000000E+08 +8.60202670337E-02 -5.53896870472E+01 +1.19509831789E-01 +1.47793617297E+02 +1.19667674504E-01 +1.47875411504E+02 +2.00570853757E-01 -7.76434043142E+01
1.77000000000E+08 +8.59850817913E-02 -5.83701839409E+01 +1.18869433393E-01 +1.46608375742E+02 +1.19061770760E-01 +1.46709134028E+02 +2.00919505707E-01 -7.91395941133E+01
1.77250000000E+08 +8.60162711019E-02 -6.11676477608E+01 +1.18173332218E-01 +1.45492633298E+02 +1.18356324087E-01 +1.45580401124E+02 +2.01131213935E-01 -8.06063070532E+01
1.77500000000E+08 +8.62582654014E-02 -6.38996286924E+01 +1.17463812479E-01 +1.44418166638E+02 +1.17646655756E-01 +1.44521834622E+02 +2.01259374978E-01 -8.20467095441E+01
1.77750000000E+08 +8.66353818774E-02 -6.65638388479E+01 +1.16896817852E-01 +1.43372171518E+02 +1.17110917809E-01 +1.43460945871E+02 +2.01414905176E-01 -8.34354179169E+01
1.78000000000E+08 +8.70899002392E-02 -6.92169834958E+01 +1.16363009270E-01 +1.42273078596E+02 +1.16586946709E-01 +1.42371424471E+02 +2.01650480189E-01 -8.48082933570E+01
1.78250000000E+08 +8.75536977355E-02 -7.17960382976E+01 +1.15793947093E-01 +1.41202371239E+02 +1.15989362353E-01 +1.41295782972E+02 +2.01772465852E-01 -8.62094066634E+01
1.78500000000E+08 +8.81365463552E-02 -7.42390371921E+01 +1.15263591977E-01 +1.40139335151E+02 +1.15474191323E-01 +1.40224452999E+02 +2.01767420786E-01 -8.75621490437E+01
