# Hz S MA R 50
! Planar, Obzor-304, 08125003, 3.51/02
! Дата: 26.03.2019 11:31:02
! Данные: Формат (Калибровка)
! Частота                  S11: Mag/Ang (F2)                     S21: Mag/Ang (F2)                     S12: Mag/Ang (F2)                     S22: Mag/Ang (F2)           
1.50000000000E+08 +6.05844692643E-01 +1.37584783084E+02 +1.17956194050E-01 -1.08446318114E+02 +1.18126783028E-01 -1.08058353350E+02 +6.05109386504E-01 +1.37209272298E+02
1.50250000000E+08 +6.00337515366E-01 +1.36521017357E+02 +1.18925468909E-01 -1.09667186434E+02 +1.19170941207E-01 -1.09290776849E+02 +5.99393550220E-01 +1.36157844727E+02
1.50500000000E+08 +5.94544920550E-01 +1.35452109280E+02 +1.19826770343E-01 -1.10930425637E+02 +1.20174422965E-01 -1.10583470933E+02 +5.93489165181E-01 +1.35105519559E+02
1.50750000000E+08 +5.88765183405E-01 +1.34380385360E+02 +1.20684094378E-01 -1.12176420245E+02 +1.21130044921E-01 -1.11832840181E+02 +5.87551263705E-01 +1.34045908364E+02
1.51000000000E+08 +5.83030364961E-01 +1.33316623780E+02 +1.21662487951E-01 -1.13360959147E+02 +1.22148981532E-01 -1.13069105266E+02 +5.81595239764E-01 +1.32994513858E+02
1.51250000000E+08 +5.77206952789E-01 +1.32235491963E+02 +1.22757165292E-01 -1.14627159755E+02 +1.23258307852E-01 -1.14366252795E+02 +5.75514228297E-01 +1.31929726894E+02
1.51500000000E+08 +5.71288549257E-01 +1.31152048596E+02 +1.23764992708E-01 -1.15941803432E+02 +1.24310984884E-01 -1.15711897268E+02 +5.69487633685E-01 +1.30866931932E+02
1.51750000000E+08 +5.65342302288E-01 +1.30069074001E+02 +1.24688041433E-01 -1.17250090866E+02 +1.25221771822E-01 -1.17062219766E+02 +5.63414737555E-01 +1.29800112148E+02
1.52000000000E+08 +5.59357611146E-01 +1.28986709865E+02 +1.25614108944E-01 -1.18568253505E+02 +1.26138043457E-01 -1.18419876750E+02 +5.57283489010E-01 +1.28718091887E+02
1.52250000000E+08 +5.53486799404E-01 +1.27892285581E+02 +1.26485901239E-01 -1.19845014863E+02 +1.26983506942E-01 -1.19723458468E+02 +5.51132167126E-01 +1.27645780353E+02
1.52500000000E+08 +5.47553469938E-01 +1.26780574423E+02 +1.27450815778E-01 -1.21125370918E+02 +1.27883715577E-01 -1.21024290234E+02 +5.44894663411E-01 +1.26551412739E+02
1.52750000000E+08 +5.41465729220E-01 +1.25652103651E+02 +1.28433789729E-01 -1.22438865162E+02 +1.28833223250E-01 -1.22362642119E+02 +5.38670753066E-01 +1.25463750413E+02
1.53000000000E+08 +5.35242456822E-01 +1.24516874025E+02 +1.29376897586E-01 -1.23769486727E+02 +1.29761328723E-01 -1.23708419465E+02 +5.32525511837E-01 +1.24371277861E+02
1.53250000000E+08 +5.29004778671E-01 +1.23379567141E+02 +1.30303720222E-01 -1.25120502820E+02 +1.30582690557E-01 -1.25062842974E+02 +5.26329368595E-01 +1.23282110268E+02
1.53500000000E+08 +5.22689487150E-01 +1.22236896273E+02 +1.31211228587E-01 -1.26475573978E+02 +1.31458947622E-01 -1.26412062597E+02 +5.20216580342E-01 +1.22182880913E+02
1.53750000000E+08 +5.16247842117E-01 +1.21077474451E+02 +1.32040608554E-01 -1.27852449284E+02 +1.32253698486E-01 -1.27777493285E+02 +5.14227575224E-01 +1.21074848422E+02
1.54000000000E+08 +5.09757244591E-01 +1.19927379506E+02 +1.32820946908E-01 -1.29222271046E+02 +1.32982718653E-01 -1.29140459511E+02 +5.08152976208E-01 +1.19941657580E+02
1.54250000000E+08 +5.03305632190E-01 +1.18774364695E+02 +1.33591829537E-01 -1.30572152074E+02 +1.33725142148E-01 -1.30469007701E+02 +5.02160442442E-01 +1.18805645613E+02
1.54500000000E+08 +4.96826270241E-01 +1.17619727286E+02 +1.34301050398E-01 -1.31943924098E+02 +1.34427156775E-01 -1.31829695810E+02 +4.96087726970E-01 +1.17655911396E+02
1.54750000000E+08 +4.90409680947E-01 +1.16445709914E+02 +1.34946587830E-01 -1.33320248342E+02 +1.35080539568E-01 -1.33196656505E+02 +4.89991587566E-01 +1.16486443434E+02
1.55000000000E+08 +4.83980521415E-01 +1.15266483982E+02 +1.35478366162E-01 -1.34674012090E+02 +1.35620613885E-01 -1.34538001861E+02 +4.83815018073E-01 +1.15304931269E+02
1.55250000000E+08 +4.77595990546E-01 +1.14074532591E+02 +1.35921265099E-01 -1.35978194465E+02 +1.36088267126E-01 -1.35834465591E+02 +4.77543909733E-01 +1.14118196407E+02
1.55500000000E+08 +4.71030078480E-01 +1.12867346672E+02 +1.36381465364E-01 -1.37244409122E+02 +1.36549725088E-01 -1.37096747318E+02 +4.71150217627E-01 +1.12919370353E+02
1.55750000000E+08 +4.64435524422E-01 +1.11655367964E+02 +1.36823531352E-01 -1.38449418007E+02 +1.37046089604E-01 -1.38306284926E+02 +4.64773697265E-01 +1.11733360259E+02
1.56000000000E+08 +4.57857585770E-01 +1.10435967415E+02 +1.37344127827E-01 -1.39623839905E+02 +1.37591307400E-01 -1.39489036961E+02 +4.58351223802E-01 +1.10535233327E+02
1.56250000000E+08 +4.51159198578E-01 +1.09208047398E+02 +1.38002456212E-01 -1.40775515972E+02 +1.38239848584E-01 -1.40644085841E+02 +4.51857400236E-01 +1.09325008899E+02
1.56500000000E+08 +4.44445320791E-01 +1.07987650114E+02 +1.38667121103E-01 -1.41906011062E+02 +1.38929435724E-01 -1.41786610975E+02 +4.45367176128E-01 +1.08118449647E+02
1.56750000000E+08 +4.37778487339E-01 +1.06749513970E+02 +1.39463700877E-01 -1.43025803647E+02 +1.39726301047E-01 -1.42915562210E+02 +4.38899778293E-01 +1.06899566772E+02
1.57000000000E+08 +4.30984987681E-01 +1.05491363578E+02 +1.40420882094E-01 -1.44158404309E+02 +1.40680814608E-01 -1.44060561963E+02 +4.32381236448E-01 +1.05675412373E+02
1.57250000000E+08 +4.23987691160E-01 +1.04232620065E+02 +1.41427116961E-01 -1.45342935159E+02 +1.41662930942E-01 -1.45252266342E+02 +4.25853065988E-01 +1.04455355011E+02
1.57500000000E+08 +4.16941121641E-01 +1.02998441837E+02 +1.42484998551E-01 -1.46525852599E+02 +1.42689141523E-01 -1.46451102949E+02 +4.19446632570E-01 +1.03212879348E+02
1.57750000000E+08 +4.09981621671E-01 +1.01761160359E+02 +1.43659805879E-01 -1.47757341196E+02 +1.43837837648E-01 -1.47680458305E+02 +4.12955857960E-01 +1.01953761649E+02
1.58000000000E+08 +4.02973341014E-01 +1.00531284993E+02 +1.44876191316E-01 -1.49069336627E+02 +1.45023094284E-01 -1.48987410050E+02 +4.06546649076E-01 +1.00680554153E+02
1.58250000000E+08 +3.95992155663E-01 +9.93037131807E+01 +1.46009948582E-01 -1.50422976916E+02 +1.46110555748E-01 -1.50354547920E+02 +4.00234904608E-01 +9.93757894477E+01
1.58500000000E+08 +3.89085912028E-01 +9.80893681637E+01 +1.46965206215E-01 -1.51833834291E+02 +1.47011617387E-01 -1.51744994184E+02 +3.93734777952E-01 +9.80410136912E+01
1.58750000000E+08 +3.82255975889E-01 +9.68601533988E+01 +1.47831052022E-01 -1.53213529208E+02 +1.47837664627E-01 -1.53126286401E+02 +3.87078812153E-01 +9.66851626893E+01
1.59000000000E+08 +3.75481034243E-01 +9.56281940740E+01 +1.48697529189E-01 -1.54608474174E+02 +1.48665081202E-01 -1.54491427625E+02 +3.80358708965E-01 +9.53331274964E+01
1.59250000000E+08 +3.68762656704E-01 +9.43827958391E+01 +1.49453877760E-01 -1.56016425822E+02 +1.49387224566E-01 -1.55882344680E+02 +3.73511960093E-01 +9.39728434175E+01
1.59500000000E+08 +3.62114167941E-01 +9.31520065052E+01 +1.50062946233E-01 -1.57429051230E+02 +1.49974610386E-01 -1.57269021743E+02 +3.66678759321E-01 +9.26122803469E+01
1.59750000000E+08 +3.55687023924E-01 +9.19108352412E+01 +1.50523877775E-01 -1.58773249183E+02 +1.50475868799E-01 -1.58581937892E+02 +3.59847630190E-01 +9.12571584917E+01
1.60000000000E+08 +3.49488476700E-01 +9.06379778539E+01 +1.51086139898E-01 -1.60067133363E+02 +1.51020150355E-01 -1.59865086508E+02 +3.53057004171E-01 +8.98890081906E+01
1.60250000000E+08 +3.43320056190E-01 +8.93243059349E+01 +1.51684765327E-01 -1.61336336212E+02 +1.51652041196E-01 -1.61120334765E+02 +3.46199289836E-01 +8.85111816612E+01
1.60500000000E+08 +3.37073992738E-01 +8.79634544478E+01 +1.52378639020E-01 -1.62632486603E+02 +1.52375855552E-01 -1.62381788898E+02 +3.39277011070E-01 +8.71413461803E+01
1.60750000000E+08 +3.30652014526E-01 +8.65976899874E+01 +1.53079798472E-01 -1.63948738993E+02 +1.53145212272E-01 -1.63694254129E+02 +3.32326793558E-01 +8.57893158140E+01
1.61000000000E+08 +3.24287660182E-01 +8.52459261675E+01 +1.53654066588E-01 -1.65286602520E+02 +1.53780454327E-01 -1.65030721197E+02 +3.25537166137E-01 +8.44546090679E+01
1.61250000000E+08 +3.18070784268E-01 +8.38984788153E+01 +1.54087867531E-01 -1.66603298368E+02 +1.54275403102E-01 -1.66335607385E+02 +3.18807518722E-01 +8.31275166369E+01
1.61500000000E+08 +3.12088504013E-01 +8.25234463343E+01 +1.54530396907E-01 -1.67835618511E+02 +1.54773792819E-01 -1.67558619564E+02 +3.12300968736E-01 +8.18087503627E+01
1.61750000000E+08 +3.06117507014E-01 +8.10831584287E+01 +1.55080294454E-01 -1.69037116342E+02 +1.55417950170E-01 -1.68770502112E+02 +3.06005863678E-01 +8.04556207963E+01
1.62000000000E+08 +3.00050862124E-01 +7.96322102376E+01 +1.55860114252E-01 -1.70241321278E+02 +1.56223219602E-01 -1.69986530292E+02 +2.99680941938E-01 +7.90663636023E+01
1.62250000000E+08 +2.93898445794E-01 +7.81631194215E+01 +1.56627566010E-01 -1.71491241911E+02 +1.57041681129E-01 -1.71247826027E+02 +2.93265822084E-01 +7.76624395988E+01
1.62500000000E+08 +2.87745745963E-01 +7.66882525931E+01 +1.57388176204E-01 -1.72739962018E+02 +1.57857028869E-01 -1.72514780730E+02 +2.86925272550E-01 +7.62810337075E+01
1.62750000000E+08 +2.81581093702E-01 +7.52079150662E+01 +1.58206448833E-01 -1.73988539051E+02 +1.58711741214E-01 -1.73770810845E+02 +2.80777664786E-01 +7.48755666454E+01
1.63000000000E+08 +2.75497289008E-01 +7.37203852734E+01 +1.59128578459E-01 -1.75262794775E+02 +1.59653990832E-01 -1.75064138793E+02 +2.74662963532E-01 +7.34183008064E+01
1.63250000000E+08 +2.69370275781E-01 +7.22103063971E+01 +1.60052258984E-01 -1.76588208084E+02 +1.60602480790E-01 -1.76402210189E+02 +2.68442247395E-01 +7.19582908901E+01
1.63500000000E+08 +2.63225418538E-01 +7.06986932774E+01 +1.60972574306E-01 -1.77914609169E+02 +1.61512472918E-01 -1.77754960912E+02 +2.62295660127E-01 +7.04920360009E+01
1.63750000000E+08 +2.56969224086E-01 +6.91796256880E+01 +1.61905736427E-01 -1.79282039621E+02 +1.62440630864E-01 -1.79141820395E+02 +2.56208939042E-01 +6.90088973564E+01
1.64000000000E+08 +2.50763117999E-01 +6.77209087425E+01 +1.62733821858E-01 +1.79288854514E+02 +1.63249405301E-01 +1.79421700325E+02 +2.50182013871E-01 +6.75323541653E+01
1.64250000000E+08 +2.44870866293E-01 +6.62619276510E+01 +1.63534500385E-01 +1.77866601698E+02 +1.64005616751E-01 +1.77995876848E+02 +2.44381395221E-01 +6.60295257997E+01
1.64500000000E+08 +2.39124929261E-01 +6.47682408310E+01 +1.64250110323E-01 +1.76405890118E+02 +1.64705531636E-01 +1.76539024812E+02 +2.38699101058E-01 +6.44784338652E+01
1.64750000000E+08 +2.33564596786E-01 +6.32394528628E+01 +1.64866288045E-01 +1.74945403652E+02 +1.65333128969E-01 +1.75065595191E+02 +2.32939991792E-01 +6.28697456339E+01
1.65000000000E+08 +2.28036350008E-01 +6.16660135693E+01 +1.65408058053E-01 +1.73459629243E+02 +1.65831524348E-01 +1.73578211750E+02 +2.27163678904E-01 +6.12645736627E+01
1.65250000000E+08 +2.22466768037E-01 +6.00668650117E+01 +1.65769442733E-01 +1.71947306054E+02 +1.66180819751E-01 +1.72068901907E+02 +2.21388955707E-01 +5.96796358985E+01
1.65500000000E+08 +2.17026265715E-01 +5.84522234090E+01 +1.65986081874E-01 +1.70459908312E+02 +1.66403148425E-01 +1.70592921233E+02 +2.15841366398E-01 +5.80612529049E+01
1.65750000000E+08 +2.11666074230E-01 +5.68172124283E+01 +1.66092109299E-01 +1.68992653775E+02 +1.66477956376E-01 +1.69122861095E+02 +2.10344995502E-01 +5.64197321978E+01
1.66000000000E+08 +2.06429656844E-01 +5.51654521799E+01 +1.66037915300E-01 +1.67558982761E+02 +1.66422188497E-01 +1.67694876907E+02 +2.04871703788E-01 +5.47769705955E+01
1.66250000000E+08 +2.01448439440E-01 +5.34589525143E+01 +1.65944806865E-01 +1.66181331015E+02 +1.66343885336E-01 +1.66318694843E+02 +1.99511772424E-01 +5.31366371389E+01
1.66500000000E+08 +1.96540501103E-01 +5.16686563255E+01 +1.65807898383E-01 +1.64848349887E+02 +1.66238926202E-01 +1.64983893006E+02 +1.94302512650E-01 +5.14698761828E+01
1.66750000000E+08 +1.91678151072E-01 +4.97939756259E+01 +1.65767403600E-01 +1.63556627805E+02 +1.66207900345E-01 +1.63696184103E+02 +1.89149063139E-01 +4.97987187199E+01
1.67000000000E+08 +1.86653093479E-01 +4.78745411840E+01 +1.65763431818E-01 +1.62272747539E+02 +1.66207281898E-01 +1.62408458410E+02 +1.84182950308E-01 +4.81330330094E+01
1.67250000000E+08 +1.81543901637E-01 +4.59416028073E+01 +1.65810374526E-01 +1.60989307251E+02 +1.66267777548E-01 +1.61127777128E+02 +1.79306817642E-01 +4.64379607608E+01
1.67500000000E+08 +1.76577582356E-01 +4.40358268930E+01 +1.65834917467E-01 +1.59734173939E+02 +1.66321882621E-01 +1.59857926953E+02 +1.74645393894E-01 +4.47418475248E+01
1.67750000000E+08 +1.71820849271E-01 +4.21044749798E+01 +1.65929876336E-01 +1.58468184261E+02 +1.66413910064E-01 +1.58594670853E+02 +1.70215018086E-01 +4.30130012211E+01
1.68000000000E+08 +1.67109841206E-01 +4.01156768749E+01 +1.66039232648E-01 +1.57192270213E+02 +1.66534372130E-01 +1.57306185840E+02 +1.65932619770E-01 +4.11817649393E+01
1.68250000000E+08 +1.62508210448E-01 +3.81067798823E+01 +1.66103278849E-01 +1.55914641178E+02 +1.66600238980E-01 +1.56024586385E+02 +1.61716038732E-01 +3.92982077720E+01
1.68500000000E+08 +1.57932348372E-01 +3.60568528942E+01 +1.66151721673E-01 +1.54612325007E+02 +1.66643538906E-01 +1.54711547626E+02 +1.57500871890E-01 +3.73659847705E+01
1.68750000000E+08 +1.53480835338E-01 +3.39970374578E+01 +1.66117188546E-01 +1.53328192645E+02 +1.66608227550E-01 +1.53416620135E+02 +1.53416614982E-01 +3.53993770130E+01
1.69000000000E+08 +1.49105238995E-01 +3.19177591064E+01 +1.66047325021E-01 +1.52039333133E+02 +1.66548527323E-01 +1.52117907071E+02 +1.49538682370E-01 +3.33611661693E+01
1.69250000000E+08 +1.44824256011E-01 +2.98441282192E+01 +1.65850722260E-01 +1.50749481200E+02 +1.66325373001E-01 +1.50816930656E+02 +1.45669623769E-01 +3.12651215274E+01
1.69500000000E+08 +1.40779544425E-01 +2.77435813315E+01 +1.65549416797E-01 +1.49516098988E+02 +1.66013912154E-01 +1.49581918056E+02 +1.41870638084E-01 +2.90804873395E+01
1.69750000000E+08 +1.36905162073E-01 +2.56086608446E+01 +1.65275194085E-01 +1.48361032924E+02 +1.65703117146E-01 +1.48436268395E+02 +1.38134490441E-01 +2.68937302355E+01
1.70000000000E+08 +1.33284701547E-01 +2.33755052252E+01 +1.65206255854E-01 +1.47256791841E+02 +1.65625558748E-01 +1.47310710984E+02 +1.34616220625E-01 +2.46488641036E+01
1.70250000000E+08 +1.29631232028E-01 +2.10298514760E+01 +1.65289409167E-01 +1.46109224502E+02 +1.65679168158E-01 +1.46163704503E+02 +1.31233121812E-01 +2.23230000007E+01
1.70500000000E+08 +1.25979222653E-01 +1.86872535326E+01 +1.65337618044E-01 +1.44923609022E+02 +1.65671880485E-01 +1.44978868652E+02 +1.27995404277E-01 +1.99376449163E+01
1.70750000000E+08 +1.22537312696E-01 +1.63278060318E+01 +1.65355469728E-01 +1.43757677139E+02 +1.65704380454E-01 +1.43831353678E+02 +1.24921976570E-01 +1.74569407190E+01
1.71000000000E+08 +1.19293421109E-01 +1.38593154154E+01 +1.65442744287E-01 +1.42589330978E+02 +1.65773197805E-01 +1.42662130559E+02 +1.21858489037E-01 +1.48952416779E+01
1.71250000000E+08 +1.16072640590E-01 +1.13127078053E+01 +1.65542514754E-01 +1.41386999911E+02 +1.65847270513E-01 +1.41466280999E+02 +1.18891532220E-01 +1.22967527122E+01
1.71500000000E+08 +1.12909954987E-01 +8.80867162254E+00 +1.65490440527E-01 +1.40178912613E+02 +1.65810900453E-01 +1.40255046832E+02 +1.15988563182E-01 +9.66691253251E+00
1.71750000000E+08 +1.10078735376E-01 +6.33322325451E+00 +1.65362632919E-01 +1.39013735881E+02 +1.65697880325E-01 +1.39103166674E+02 +1.13359320075E-01 +7.00702742889E+00
1.72000000000E+08 +1.07659017757E-01 +3.71062565904E+00 +1.65429803518E-01 +1.37886829220E+02 +1.65763483649E-01 +1.37973836350E+02 +1.10994856562E-01 +4.25239803425E+00
1.72250000000E+08 +1.05407918366E-01 +9.51976064792E-01 +1.65554354493E-01 +1.36691600558E+02 +1.65899354951E-01 +1.36783242627E+02 +1.08681928512E-01 +1.33562179282E+00
1.72500000000E+08 +1.03264308324E-01 -1.86755574380E+00 +1.65536041737E-01 +1.35479430234E+02 +1.65891043107E-01 +1.35570524329E+02 +1.06365379801E-01 -1.68668247233E+00
1.72750000000E+08 +1.01357519616E-01 -4.78697244432E+00 +1.65428622671E-01 +1.34282869225E+02 +1.65797872657E-01 +1.34370876266E+02 +1.04041056006E-01 -4.72956572840E+00
1.73000000000E+08 +9.95269553199E-02 -7.83228807958E+00 +1.65251318235E-01 +1.33106716653E+02 +1.65637101285E-01 +1.33199454978E+02 +1.01698865248E-01 -7.78802333281E+00
1.73250000000E+08 +9.78188997443E-02 -1.09125776780E+01 +1.65052210457E-01 +1.31955785938E+02 +1.65440623772E-01 +1.32038427771E+02 +9.94507878188E-02 -1.08207019234E+01
1.73500000000E+08 +9.63723139203E-02 -1.39861276458E+01 +1.64860291629E-01 +1.30861230057E+02 +1.65248662456E-01 +1.30942165851E+02 +9.74124016505E-02 -1.38120759733E+01
1.73750000000E+08 +9.51283605637E-02 -1.71888842079E+01 +1.64804368354E-01 +1.29780997385E+02 +1.65190528806E-01 +1.29852614526E+02 +9.56200375630E-02 -1.68785132943E+01
1.74000000000E+08 +9.39569304448E-02 -2.05420771044E+01 +1.64778753645E-01 +1.28687940305E+02 +1.65186024500E-01 +1.28752200189E+02 +9.38987864849E-02 -2.00112362390E+01
1.74250000000E+08 +9.27277052964E-02 -2.39117439825E+01 +1.64784288898E-01 +1.27584419729E+02 +1.65154470912E-01 +1.27642364177E+02 +9.22781880185E-02 -2.31540811497E+01
1.74500000000E+08 +9.15966360589E-02 -2.72378226458E+01 +1.64814490640E-01 +1.26520381723E+02 +1.65130105015E-01 +1.26572555337E+02 +9.07873535432E-02 -2.62757322113E+01
1.74750000000E+08 +9.06001047899E-02 -3.05989128375E+01 +1.64909323801E-01 +1.25431027329E+02 +1.65291032828E-01 +1.25493488467E+02 +8.93037168745E-02 -2.94137854747E+01
1.75000000000E+08 +8.95258386146E-02 -3.39559026513E+01 +1.65070415980E-01 +1.24342881295E+02 +1.65419045193E-01 +1.24367442343E+02 +8.80179973587E-02 -3.24261390500E+01
1.75250000000E+08 +8.86586761039E-02 -3.72122789939E+01 +1.65219762549E-01 +1.23225731813E+02 +1.65554894744E-01 +1.23263704862E+02 +8.69995280527E-02 -3.53013344200E+01
1.75500000000E+08 +8.77373557329E-02 -4.04110361274E+01 +1.65466011179E-01 +1.22097215426E+02 +1.65749075542E-01 +1.22133173864E+02 +8.64326502364E-02 -3.81479156176E+01
1.75750000000E+08 +8.70225889758E-02 -4.34346971299E+01 +1.65659546559E-01 +1.20930738252E+02 +1.65945696743E-01 +1.20970103296E+02 +8.61839506378E-02 -4.11123863455E+01
1.76000000000E+08 +8.65744986322E-02 -4.64695210920E+01 +1.65823600318E-01 +1.19722549065E+02 +1.66114226512E-01 +1.19765612348E+02 +8.60430198153E-02 -4.42659227237E+01
1.76250000000E+08 +8.61700191402E-02 -4.94565682829E+01 +1.65841266753E-01 +1.18517793663E+02 +1.66108697155E-01 +1.18562430564E+02 +8.58334596603E-02 -4.73904309503E+01
1.76500000000E+08 +8.60393873121E-02 -5.23824136575E+01 +1.65908361770E-01 +1.17321187543E+02 +1.66165633767E-01 +1.17367267245E+02 +8.56956645066E-02 -5.04615691101E+01
1.76750000000E+08 +8.59876270415E-02 -5.53547944184E+01 +1.65862989663E-01 +1.16076681491E+02 +1.66102434626E-01 +1.16122768763E+02 +8.55804446240E-02 -5.34800899221E+01
1.77000000000E+08 +8.58949855440E-02 -5.83085237221E+01 +1.65611461877E-01 +1.14855751217E+02 +1.65862814625E-01 +1.14903481982E+02 +8.56086339968E-02 -5.63353754715E+01
1.77250000000E+08 +8.59233619262E-02 -6.10755188444E+01 +1.65337927007E-01 +1.13658176598E+02 +1.65545110546E-01 +1.13714588852E+02 +8.58378682917E-02 -5.91934984325E+01
1.77500000000E+08 +8.61487348533E-02 -6.37749387414E+01 +1.64986423714E-01 +1.12501301001E+02 +1.65188665306E-01 +1.12550987312E+02 +8.60711526924E-02 -6.20471457770E+01
1.77750000000E+08 +8.64992136801E-02 -6.64292781934E+01 +1.64597342183E-01 +1.11380024845E+02 +1.64813174934E-01 +1.11432147616E+02 +8.63495730972E-02 -6.47854662302E+01
1.78000000000E+08 +8.69639661325E-02 -6.90636523736E+01 +1.64266707190E-01 +1.10274460209E+02 +1.64486393183E-01 +1.10332854857E+02 +8.66952654537E-02 -6.75070003150E+01
1.78250000000E+08 +8.74355409200E-02 -7.16296217441E+01 +1.64002441109E-01 +1.09195964350E+02 +1.64185951757E-01 +1.09256897201E+02 +8.70787435664E-02 -7.01410710516E+01
1.78500000000E+08 +8.80362927306E-02 -7.40457580725E+01 +1.63759254644E-01 +1.08096623713E+02 +1.63925368606E-01 +1.08168773018E+02 +8.74602656446E-02 -7.26587009253E+01
