# Hz S MA R 50
! Planar, Obzor-304, 08125003, 3.51/02
! Дата: 26.03.2019 11:31:57
! Данные: Формат (Калибровка)
! Частота                  S11: Mag/Ang (F2)                     S21: Mag/Ang (F2)                     S12: Mag/Ang (F2)                     S22: Mag/Ang (F2)           
1.50000000000E+08 +5.33810839676E-01 +1.18843104478E+02 +1.58440858817E-01 -6.56702534432E+01 +1.58811485098E-01 -6.53639601204E+01 +6.05379126009E-01 +1.37165297838E+02
1.50250000000E+08 +5.28041205629E-01 +1.17524563447E+02 +1.59054680437E-01 -6.72227499703E+01 +1.59562990403E-01 -6.69224340202E+01 +5.99554973085E-01 +1.36117135134E+02
1.50500000000E+08 +5.22358598780E-01 +1.16190887236E+02 +1.59568714449E-01 -6.87695838852E+01 +1.60194802452E-01 -6.84962438989E+01 +5.93655331428E-01 +1.35067659849E+02
1.50750000000E+08 +5.16595955522E-01 +1.14845620693E+02 +1.60025958475E-01 -7.02995109820E+01 +1.60730099969E-01 -7.00526340811E+01 +5.87674707877E-01 +1.34006237152E+02
1.51000000000E+08 +5.10770314636E-01 +1.13481198909E+02 +1.60544106436E-01 -7.18143012237E+01 +1.61301631382E-01 -7.16114808279E+01 +5.81651176031E-01 +1.32948213448E+02
1.51250000000E+08 +5.04875876456E-01 +1.12114095732E+02 +1.61027431782E-01 -7.33249672005E+01 +1.61823704138E-01 -7.31593239893E+01 +5.75530597062E-01 +1.31888089679E+02
1.51500000000E+08 +4.99005919590E-01 +1.10747575459E+02 +1.61516784292E-01 -7.48321148947E+01 +1.62334048785E-01 -7.47063248263E+01 +5.69447059797E-01 +1.30833070908E+02
1.51750000000E+08 +4.93202030983E-01 +1.09363974521E+02 +1.61999042543E-01 -7.63338547806E+01 +1.62799727830E-01 -7.62515517379E+01 +5.63348579485E-01 +1.29765251603E+02
1.52000000000E+08 +4.87442283606E-01 +1.07963349939E+02 +1.62559431836E-01 -7.78426177903E+01 +1.63340856752E-01 -7.77980384241E+01 +5.57219887603E-01 +1.28689175210E+02
1.52250000000E+08 +4.81610376671E-01 +1.06534236836E+02 +1.63047559973E-01 -7.93852981110E+01 +1.63775579715E-01 -7.93646622518E+01 +5.51050905389E-01 +1.27613215615E+02
1.52500000000E+08 +4.75751625906E-01 +1.05088945736E+02 +1.63481681259E-01 -8.08969368349E+01 +1.64123895223E-01 -8.08996219181E+01 +5.44753960868E-01 +1.26533444101E+02
1.52750000000E+08 +4.69795049589E-01 +1.03635570397E+02 +1.63974246944E-01 -8.23997086082E+01 +1.64525001738E-01 -8.24246671628E+01 +5.38511766420E-01 +1.25451582862E+02
1.53000000000E+08 +4.63849001225E-01 +1.02169892413E+02 +1.64519491031E-01 -8.39183118252E+01 +1.65017387806E-01 -8.39594774845E+01 +5.32376611541E-01 +1.24369667627E+02
1.53250000000E+08 +4.57928662190E-01 +1.00694672891E+02 +1.65042123735E-01 -8.54622659177E+01 +1.65463891140E-01 -8.55110653069E+01 +5.26199753399E-01 +1.23285818703E+02
1.53500000000E+08 +4.52036563133E-01 +9.92016855825E+01 +1.65525011699E-01 -8.70319052116E+01 +1.65848401266E-01 -8.70699368355E+01 +5.20128865000E-01 +1.22188432221E+02
1.53750000000E+08 +4.46207845685E-01 +9.76837951741E+01 +1.66009142634E-01 -8.85853895789E+01 +1.66238162739E-01 -8.86270208802E+01 +5.14164305825E-01 +1.21089552032E+02
1.54000000000E+08 +4.40383192482E-01 +9.61486117511E+01 +1.66438647519E-01 -9.01644027214E+01 +1.66635849746E-01 -9.01914486241E+01 +5.08160135395E-01 +1.19966754177E+02
1.54250000000E+08 +4.34482209333E-01 +9.45917192717E+01 +1.66858564837E-01 -9.17739420156E+01 +1.67000971673E-01 -9.17833832712E+01 +5.02191937998E-01 +1.18833352495E+02
1.54500000000E+08 +4.28687984839E-01 +9.30312405453E+01 +1.67197874620E-01 -9.33820274807E+01 +1.67304884076E-01 -9.33669709234E+01 +4.96168620037E-01 +1.17693201069E+02
1.54750000000E+08 +4.23037723962E-01 +9.14348175806E+01 +1.67439180876E-01 -9.50042138514E+01 +1.67539359009E-01 -9.49811046714E+01 +4.90136978731E-01 +1.16533075268E+02
1.55000000000E+08 +4.17296229617E-01 +8.98081994584E+01 +1.67583816944E-01 -9.66187569802E+01 +1.67677928048E-01 -9.65851699143E+01 +4.84064917082E-01 +1.15352030165E+02
1.55250000000E+08 +4.11446261673E-01 +8.81647571530E+01 +1.67619752452E-01 -9.82080346113E+01 +1.67748482966E-01 -9.81701664416E+01 +4.77865682199E-01 +1.14162254933E+02
1.55500000000E+08 +4.05558349451E-01 +8.65110796070E+01 +1.67663896927E-01 -9.97699735514E+01 +1.67796496360E-01 -9.97344826871E+01 +4.71503767703E-01 +1.12960717446E+02
1.55750000000E+08 +3.99655869474E-01 +8.48351902327E+01 +1.67741561290E-01 -1.01316143178E+02 +1.67903533327E-01 -1.01278731474E+02 +4.65151925271E-01 +1.11773631939E+02
1.56000000000E+08 +3.93802822837E-01 +8.31574505988E+01 +1.67847723152E-01 -1.02871173875E+02 +1.67997768848E-01 -1.02843536421E+02 +4.58745180428E-01 +1.10572503789E+02
1.56250000000E+08 +3.87955657769E-01 +8.14700210896E+01 +1.67937639131E-01 -1.04451087920E+02 +1.68099638625E-01 -1.04419734102E+02 +4.52263376593E-01 +1.09362942041E+02
1.56500000000E+08 +3.82231246012E-01 +7.97691846963E+01 +1.67904721999E-01 -1.06026964265E+02 +1.68072061184E-01 -1.05999941376E+02 +4.45796315376E-01 +1.08157950838E+02
1.56750000000E+08 +3.76556819636E-01 +7.80398457137E+01 +1.67872248211E-01 -1.07563276004E+02 +1.68026355181E-01 -1.07540380042E+02 +4.39360300423E-01 +1.06941780906E+02
1.57000000000E+08 +3.70828059011E-01 +7.62730897706E+01 +1.67890785686E-01 -1.09123533166E+02 +1.68036265454E-01 -1.09105104330E+02 +4.32862364475E-01 +1.05713907754E+02
1.57250000000E+08 +3.65020439102E-01 +7.45023836473E+01 +1.67851811295E-01 -1.10672803895E+02 +1.67934076218E-01 -1.10675623317E+02 +4.26373125755E-01 +1.04486892334E+02
1.57500000000E+08 +3.59238386091E-01 +7.27337308313E+01 +1.67783424312E-01 -1.12217984133E+02 +1.67860473816E-01 -1.12217499566E+02 +4.19969225809E-01 +1.03241401497E+02
1.57750000000E+08 +3.53619700005E-01 +7.09420347747E+01 +1.67800369091E-01 -1.13782187774E+02 +1.67828736710E-01 -1.13775626513E+02 +4.13572067179E-01 +1.01976531280E+02
1.58000000000E+08 +3.48024575978E-01 +6.91323402099E+01 +1.67745860897E-01 -1.15373960486E+02 +1.67717220345E-01 -1.15377421600E+02 +4.07154885778E-01 +1.00689373139E+02
1.58250000000E+08 +3.42530503322E-01 +6.73092411485E+01 +1.67577098872E-01 -1.16961380228E+02 +1.67497415992E-01 -1.16955904493E+02 +4.00852428530E-01 +9.93785396839E+01
1.58500000000E+08 +3.37156336123E-01 +6.54575349004E+01 +1.67410594422E-01 -1.18535122214E+02 +1.67275517357E-01 -1.18516685987E+02 +3.94315756219E-01 +9.80342676106E+01
1.58750000000E+08 +3.31839674777E-01 +6.35601653116E+01 +1.67214217532E-01 -1.20124220111E+02 +1.67040224349E-01 -1.20096720321E+02 +3.87653131231E-01 +9.66741320782E+01
1.59000000000E+08 +3.26448369760E-01 +6.16357410404E+01 +1.66938510084E-01 -1.21740805655E+02 +1.66719668877E-01 -1.21687842489E+02 +3.80897081871E-01 +9.53089046729E+01
1.59250000000E+08 +3.21163717644E-01 +5.96923349379E+01 +1.66562491782E-01 -1.23352131753E+02 +1.66326198321E-01 -1.23279956848E+02 +3.74056102332E-01 +9.39418554347E+01
1.59500000000E+08 +3.15899878834E-01 +5.77296590954E+01 +1.66046356047E-01 -1.24968017228E+02 +1.65795904327E-01 -1.24869417204E+02 +3.67166967333E-01 +9.25802559748E+01
1.59750000000E+08 +3.10659087861E-01 +5.57327631119E+01 +1.65418302440E-01 -1.26541075284E+02 +1.65174451627E-01 -1.26423120333E+02 +3.60301613683E-01 +9.12155825623E+01
1.60000000000E+08 +3.05430575272E-01 +5.37388122027E+01 +1.64716591903E-01 -1.28074493342E+02 +1.64500792841E-01 -1.27932223305E+02 +3.53426174646E-01 +8.98443309483E+01
1.60250000000E+08 +3.00348508133E-01 +5.17481248664E+01 +1.63981694214E-01 -1.29558223072E+02 +1.63821514887E-01 -1.29409556147E+02 +3.46562285909E-01 +8.84716489113E+01
1.60500000000E+08 +2.95458819175E-01 +4.97201544784E+01 +1.63415723127E-01 -1.31004993789E+02 +1.63265909695E-01 -1.30842664255E+02 +3.39594756134E-01 +8.70932479756E+01
1.60750000000E+08 +2.90646973152E-01 +4.76864726064E+01 +1.62916683783E-01 -1.32485905212E+02 +1.62838429208E-01 -1.32307863275E+02 +3.32621122580E-01 +8.57425291786E+01
1.61000000000E+08 +2.85930530741E-01 +4.56222814787E+01 +1.62312912282E-01 -1.34015599566E+02 +1.62268799496E-01 -1.33839366215E+02 +3.25793716376E-01 +8.44019633230E+01
1.61250000000E+08 +2.81246260771E-01 +4.35458320066E+01 +1.61514738911E-01 -1.35508407732E+02 +1.61522905614E-01 -1.35330318003E+02 +3.18957825046E-01 +8.30709610767E+01
1.61500000000E+08 +2.76701916881E-01 +4.14773500395E+01 +1.60690084195E-01 -1.36946883547E+02 +1.60721358793E-01 -1.36770948270E+02 +3.12395915139E-01 +8.17548555033E+01
1.61750000000E+08 +2.72154440348E-01 +3.93795980419E+01 +1.59916904962E-01 -1.38360046888E+02 +1.60001165387E-01 -1.38189803655E+02 +3.06006171082E-01 +8.04076281416E+01
1.62000000000E+08 +2.67792774860E-01 +3.73320917803E+01 +1.59162540602E-01 -1.39765720594E+02 +1.59259028463E-01 -1.39604386217E+02 +2.99659121817E-01 +7.90211415139E+01
1.62250000000E+08 +2.63640156515E-01 +3.52595020518E+01 +1.58309407792E-01 -1.41150024991E+02 +1.58438081425E-01 -1.40990820875E+02 +2.93158788339E-01 +7.76238282501E+01
1.62500000000E+08 +2.59687499470E-01 +3.31635996484E+01 +1.57585717103E-01 -1.42479311321E+02 +1.57732490659E-01 -1.42332585918E+02 +2.86776122634E-01 +7.62463342626E+01
1.62750000000E+08 +2.55855685909E-01 +3.10616988396E+01 +1.56848925725E-01 -1.43822622803E+02 +1.56972182037E-01 -1.43694966116E+02 +2.80599585231E-01 +7.48518845060E+01
1.63000000000E+08 +2.52058230640E-01 +2.89570576640E+01 +1.56059300030E-01 -1.45133700808E+02 +1.56177074191E-01 -1.45011054433E+02 +2.74430028987E-01 +7.34040867925E+01
1.63250000000E+08 +2.48453951599E-01 +2.68334514922E+01 +1.55443549022E-01 -1.46399798234E+02 +1.55548324334E-01 -1.46284387690E+02 +2.68223437162E-01 +7.19471047205E+01
1.63500000000E+08 +2.44990473982E-01 +2.47032792918E+01 +1.54949387695E-01 -1.47691157906E+02 +1.55024618999E-01 -1.47581846437E+02 +2.62086731439E-01 +7.04923393594E+01
1.63750000000E+08 +2.41634368108E-01 +2.25537233143E+01 +1.54416351383E-01 -1.49017161955E+02 +1.54460975545E-01 -1.48911656878E+02 +2.56019769861E-01 +6.90021079195E+01
1.64000000000E+08 +2.38409395144E-01 +2.03924621590E+01 +1.53858999302E-01 -1.50355519377E+02 +1.53890751157E-01 -1.50234853117E+02 +2.49995818517E-01 +6.75289067037E+01
1.64250000000E+08 +2.35294985879E-01 +1.82209054287E+01 +1.53273445986E-01 -1.51671460754E+02 +1.53269178354E-01 -1.51550981163E+02 +2.44133670243E-01 +6.60296981848E+01
1.64500000000E+08 +2.32258055961E-01 +1.60314399230E+01 +1.52712863418E-01 -1.52988815763E+02 +1.52709020525E-01 -1.52857731923E+02 +2.38483782505E-01 +6.44838960615E+01
1.64750000000E+08 +2.29361904490E-01 +1.38513926169E+01 +1.52126352783E-01 -1.54302750507E+02 +1.52112596958E-01 -1.54166733508E+02 +2.32728767538E-01 +6.28881410298E+01
1.65000000000E+08 +2.26575584029E-01 +1.16719707231E+01 +1.51532398134E-01 -1.55586181623E+02 +1.51532365300E-01 -1.55441695229E+02 +2.26990051636E-01 +6.12869538095E+01
1.65250000000E+08 +2.23987555334E-01 +9.50083367945E+00 +1.51041075331E-01 -1.56889027069E+02 +1.51041305807E-01 -1.56729540393E+02 +2.21268458917E-01 +5.96901378144E+01
1.65500000000E+08 +2.21606755104E-01 +7.28658386578E+00 +1.50508352269E-01 -1.58217116249E+02 +1.50501134548E-01 -1.58047942657E+02 +2.15697322172E-01 +5.80730344097E+01
1.65750000000E+08 +2.19264701716E-01 +5.07810140476E+00 +1.49932981848E-01 -1.59552894261E+02 +1.49950483477E-01 -1.59375170519E+02 +2.10224600976E-01 +5.64329943797E+01
1.66000000000E+08 +2.17005257203E-01 +2.88588458088E+00 +1.49315049097E-01 -1.60863162400E+02 +1.49328337380E-01 -1.60682940595E+02 +2.04759580945E-01 +5.47920992724E+01
1.66250000000E+08 +2.14944743548E-01 +7.18550759437E-01 +1.48670540138E-01 -1.62154973357E+02 +1.48709508809E-01 -1.61971345233E+02 +1.99411292034E-01 +5.31461872672E+01
1.66500000000E+08 +2.13107789280E-01 -1.44778848211E+00 +1.48017415241E-01 -1.63472362185E+02 +1.48111398806E-01 -1.63273618810E+02 +1.94223047726E-01 +5.14683473039E+01
1.66750000000E+08 +2.11418087582E-01 -3.59688968906E+00 +1.47309991640E-01 -1.64743922921E+02 +1.47416412242E-01 -1.64549998753E+02 +1.88992232466E-01 +4.97900642189E+01
1.67000000000E+08 +2.10005868681E-01 -5.74621360085E+00 +1.46626521845E-01 -1.65985585153E+02 +1.46798816422E-01 -1.65783641149E+02 +1.84008656454E-01 +4.81305963225E+01
1.67250000000E+08 +2.08744242784E-01 -7.92289807421E+00 +1.46079405060E-01 -1.67224756586E+02 +1.46275202459E-01 -1.67034374974E+02 +1.79101033969E-01 +4.64380332826E+01
1.67500000000E+08 +2.07481389401E-01 -1.01070576753E+01 +1.45461619573E-01 -1.68482835544E+02 +1.45669290385E-01 -1.68299641473E+02 +1.74446598993E-01 +4.47385007892E+01
1.67750000000E+08 +2.06326871228E-01 -1.22761596224E+01 +1.44881081338E-01 -1.69685769192E+02 +1.45118208638E-01 -1.69516357693E+02 +1.70022199921E-01 +4.29843404379E+01
1.68000000000E+08 +2.05222193042E-01 -1.44264581596E+01 +1.44466870663E-01 -1.70910472778E+02 +1.44671185819E-01 -1.70759971754E+02 +1.65660950324E-01 +4.11270844587E+01
1.68250000000E+08 +2.04170196449E-01 -1.65580867401E+01 +1.44044044038E-01 -1.72177535691E+02 +1.44251037607E-01 -1.72030882800E+02 +1.61346382148E-01 +3.92308638764E+01
1.68500000000E+08 +2.03191794167E-01 -1.86328334094E+01 +1.43576088163E-01 -1.73463808576E+02 +1.43769221289E-01 -1.73336610352E+02 +1.57021336390E-01 +3.72914986108E+01
1.68750000000E+08 +2.02558670390E-01 -2.06928623036E+01 +1.43097665593E-01 -1.74774670150E+02 +1.43284059210E-01 -1.74647545571E+02 +1.52875804718E-01 +3.53173569106E+01
1.69000000000E+08 +2.01981086140E-01 -2.28040338726E+01 +1.42575673206E-01 -1.76092176778E+02 +1.42753695777E-01 -1.75985393108E+02 +1.48880512417E-01 +3.32864708484E+01
1.69250000000E+08 +2.01376081074E-01 -2.49292012539E+01 +1.41978999402E-01 -1.77434155105E+02 +1.42108601799E-01 -1.77330114394E+02 +1.44908418350E-01 +3.12022844377E+01
1.69500000000E+08 +2.00622898836E-01 -2.70396077020E+01 +1.41242024027E-01 -1.78767211669E+02 +1.41339045529E-01 -1.78659599858E+02 +1.41039133683E-01 +2.90375481840E+01
1.69750000000E+08 +1.99904643966E-01 -2.90670180087E+01 +1.40481087521E-01 +1.79959162076E+02 +1.40523696321E-01 -1.79928486130E+02 +1.37256766522E-01 +2.68645092448E+01
1.70000000000E+08 +1.99379896242E-01 -3.10738040920E+01 +1.39761801718E-01 +1.78701271299E+02 +1.39772132969E-01 +1.78797414755E+02 +1.33680195497E-01 +2.46562391371E+01
1.70250000000E+08 +1.98960012366E-01 -3.30744405175E+01 +1.39005778933E-01 +1.77445258754E+02 +1.38971106383E-01 +1.77558680673E+02 +1.30254358498E-01 +2.23648185528E+01
1.70500000000E+08 +1.98621536787E-01 -3.50926990667E+01 +1.38319708450E-01 +1.76192233122E+02 +1.38256849547E-01 +1.76324668868E+02 +1.27052955554E-01 +2.00053771373E+01
1.70750000000E+08 +1.98197850791E-01 -3.70912924423E+01 +1.37570545705E-01 +1.74930375806E+02 +1.37487254018E-01 +1.75067263826E+02 +1.23950396291E-01 +1.75572157930E+01
1.71000000000E+08 +1.97922447004E-01 -3.90481216023E+01 +1.36775222589E-01 +1.73669118316E+02 +1.36657953305E-01 +1.73837928366E+02 +1.20914515023E-01 +1.50467347512E+01
1.71250000000E+08 +1.97675943889E-01 -4.09985114872E+01 +1.35923115098E-01 +1.72451094001E+02 +1.35807342698E-01 +1.72629889376E+02 +1.17968412128E-01 +1.24697401856E+01
1.71500000000E+08 +1.97369477944E-01 -4.29328045984E+01 +1.35034991373E-01 +1.71235662152E+02 +1.34904123825E-01 +1.71436058402E+02 +1.15083223316E-01 +9.88279653247E+00
1.71750000000E+08 +1.97239395184E-01 -4.48326305471E+01 +1.34192038400E-01 +1.70067820028E+02 +1.34080966910E-01 +1.70298601286E+02 +1.12468467766E-01 +7.27671650446E+00
1.72000000000E+08 +1.97141004773E-01 -4.67238932712E+01 +1.33337843323E-01 +1.68926927010E+02 +1.33235401279E-01 +1.69172820008E+02 +1.10117478672E-01 +4.58806346978E+00
1.72250000000E+08 +1.96960913455E-01 -4.85834145975E+01 +1.32549998096E-01 +1.67829228126E+02 +1.32483869426E-01 +1.68104849553E+02 +1.07900543192E-01 +1.73468457241E+00
1.72500000000E+08 +1.96829081008E-01 -5.03698771772E+01 +1.31870611745E-01 +1.66721021904E+02 +1.31824765446E-01 +1.67021186205E+02 +1.05608949853E-01 -1.21040185176E+00
1.72750000000E+08 +1.96899458285E-01 -5.21266796106E+01 +1.31186603788E-01 +1.65606047539E+02 +1.31221506375E-01 +1.65915783262E+02 +1.03397504307E-01 -4.18927311725E+00
1.73000000000E+08 +1.97023975471E-01 -5.39022730410E+01 +1.30510998735E-01 +1.64476846841E+02 +1.30599655793E-01 +1.64807524982E+02 +1.01191133826E-01 -7.21436971746E+00
1.73250000000E+08 +1.97003081571E-01 -5.56374472242E+01 +1.29845794580E-01 +1.63397590770E+02 +1.29941490587E-01 +1.63733771068E+02 +9.90674020077E-02 -1.02295624263E+01
1.73500000000E+08 +1.97126078806E-01 -5.72750804504E+01 +1.29232445952E-01 +1.62300589767E+02 +1.29398033224E-01 +1.62640009729E+02 +9.72357078309E-02 -1.32293249786E+01
1.73750000000E+08 +1.97416531289E-01 -5.88963207862E+01 +1.28679343864E-01 +1.61209412554E+02 +1.28879199096E-01 +1.61557738258E+02 +9.55577285013E-02 -1.63587338100E+01
1.74000000000E+08 +1.97826135865E-01 -6.05221847054E+01 +1.28092251977E-01 +1.60100134435E+02 +1.28372440976E-01 +1.60447752496E+02 +9.39183210963E-02 -1.95755679344E+01
1.74250000000E+08 +1.98326789856E-01 -6.21651235545E+01 +1.27619508539E-01 +1.58982998843E+02 +1.27954320227E-01 +1.59309402500E+02 +9.22874813648E-02 -2.27904140143E+01
1.74500000000E+08 +1.98694325458E-01 -6.38117419859E+01 +1.27057967358E-01 +1.57823096675E+02 +1.27438319656E-01 +1.58152972404E+02 +9.07862319797E-02 -2.59834375928E+01
1.74750000000E+08 +1.99025020029E-01 -6.54452986991E+01 +1.26376756267E-01 +1.56660550771E+02 +1.26843087690E-01 +1.56955728671E+02 +8.93493823130E-02 -2.91630947898E+01
1.75000000000E+08 +1.99312404846E-01 -6.70731631202E+01 +1.25681221501E-01 +1.55556342390E+02 +1.26147063997E-01 +1.55834623791E+02 +8.80029041268E-02 -3.22383428019E+01
1.75250000000E+08 +1.99497535500E-01 -6.86423061939E+01 +1.25028151411E-01 +1.54513436378E+02 +1.25493688940E-01 +1.54777895422E+02 +8.69282772427E-02 -3.51514002626E+01
1.75500000000E+08 +1.99679929875E-01 -7.02287057970E+01 +1.24570777872E-01 +1.53427955448E+02 +1.25014313926E-01 +1.53682454345E+02 +8.63382938080E-02 -3.80539316123E+01
1.75750000000E+08 +1.99782521813E-01 -7.17719472943E+01 +1.24040550158E-01 +1.52302405079E+02 +1.24519901507E-01 +1.52544205700E+02 +8.60804988784E-02 -4.10325616959E+01
1.76000000000E+08 +1.99841114634E-01 -7.32533229904E+01 +1.23407158062E-01 +1.51211727078E+02 +1.23897703540E-01 +1.51423245365E+02 +8.58886561089E-02 -4.41821337904E+01
1.76250000000E+08 +2.00054665747E-01 -7.47223863335E+01 +1.22868943213E-01 +1.50116899702E+02 +1.23346457309E-01 +1.50324889514E+02 +8.56622583613E-02 -4.72925724212E+01
1.76500000000E+08 +2.00319863015E-01 -7.61955416311E+01 +1.22257274160E-01 +1.49021267137E+02 +1.22737056143E-01 +1.49217776814E+02 +8.55261195483E-02 -5.03551189183E+01
1.76750000000E+08 +2.00511174978E-01 -7.76726489505E+01 +1.21615940992E-01 +1.47965352695E+02 +1.22089395147E-01 +1.48158661695E+02 +8.53851531349E-02 -5.33660393215E+01
1.77000000000E+08 +2.00673353837E-01 -7.91546297667E+01 +1.21145935126E-01 +1.46957294009E+02 +1.21620880023E-01 +1.47129048367E+02 +8.53715621706E-02 -5.61866741998E+01
1.77250000000E+08 +2.00725571075E-01 -8.06085439677E+01 +1.20761682956E-01 +1.45883483892E+02 +1.21219363824E-01 +1.46059314372E+02 +8.56054391379E-02 -5.89832683774E+01
1.77500000000E+08 +2.00714626403E-01 -8.20131387814E+01 +1.20367655514E-01 +1.44765731932E+02 +1.20837452170E-01 +1.44944804811E+02 +8.58659904389E-02 -6.17821319487E+01
1.77750000000E+08 +2.00802831023E-01 -8.33753489122E+01 +1.19914500886E-01 +1.43622237314E+02 +1.20361626880E-01 +1.43792990377E+02 +8.61856910549E-02 -6.44679482914E+01
1.78000000000E+08 +2.00994496010E-01 -8.47183802386E+01 +1.19396967616E-01 +1.42502157456E+02 +1.19858760547E-01 +1.42668288151E+02 +8.66133646404E-02 -6.71664324541E+01
1.78250000000E+08 +2.01179215604E-01 -8.61040753479E+01 +1.18928488391E-01 +1.41328912100E+02 +1.19350348652E-01 +1.41497373315E+02 +8.70538130237E-02 -6.97837255095E+01
1.78500000000E+08 +2.01239799409E-01 -8.74565346729E+01 +1.18271683756E-01 +1.40160489910E+02 +1.18753825497E-01 +1.40340301481E+02 +8.75522684546E-02 -7.23427589616E+01
